Time [s],Channel 0,Channel 1,Channel 2,Channel 3,Channel 4
0.000000000,1,1,1,1,1
0.000256000,1,0,0,1,1
0.004452875,0,0,0,1,1
0.005054125,0,1,0,1,1
0.005354750,0,0,0,1,1
0.005957875,0,1,0,1,1
0.006258375,0,0,0,1,1
0.006561125,0,0,1,1,1
0.006861750,0,1,1,1,1
0.007162375,0,0,1,1,1
0.007765500,0,1,1,1,1
0.008066125,0,0,1,1,1
0.008669250,0,1,1,1,1
0.008969875,0,0,1,1,1
0.009573000,0,1,1,1,1
0.009873500,0,0,1,1,1
0.010476625,0,1,1,1,1
0.010777250,0,0,1,1,1
0.011378375,0,1,1,1,1
0.011681000,0,0,1,1,1
0.011982125,0,0,0,1,1
0.012282625,0,1,0,1,1
0.012585250,0,0,0,1,1
0.013186375,0,1,0,1,1
0.013489000,0,0,0,1,1
0.014090125,0,1,0,1,1
0.014390625,0,0,0,1,1
0.014993875,0,1,0,1,1
0.015294375,0,0,0,1,1
0.015897625,0,1,0,1,1
0.016198125,0,0,0,1,1
0.016801375,0,1,0,1,1
0.017101875,0,0,0,1,1
0.017705125,0,1,0,1,1
0.018005625,0,0,0,1,1
0.018608750,0,1,0,1,1
0.018909375,0,0,0,1,1
0.019512375,1,0,0,1,1
0.025450375,0,0,0,1,1
0.026051625,0,1,0,1,1
0.026352125,0,0,0,1,1
0.026955375,0,1,0,1,1
0.027255875,0,0,0,1,1
0.027558625,0,0,1,1,1
0.027859125,0,1,1,1,1
0.028159875,0,0,1,1,1
0.028762875,0,1,1,1,1
0.029063500,0,0,1,1,1
0.029666625,0,1,1,1,1
0.029967250,0,0,1,1,1
0.030570375,0,1,1,1,1
0.030871000,0,0,1,1,1
0.031474125,0,1,1,1,1
0.031774750,0,0,1,1,1
0.032375875,0,1,1,1,1
0.032678500,0,0,1,1,1
0.032979500,0,0,0,1,1
0.033280125,0,1,0,1,1
0.033582750,0,0,0,1,1
0.034183875,0,1,0,1,1
0.034486500,0,0,0,1,1
0.035087625,0,1,0,1,1
0.035388125,0,0,0,1,1
0.035991250,0,1,0,1,1
0.036291875,0,0,0,1,1
0.036895000,0,1,0,1,1
0.037195625,0,0,0,1,1
0.037798750,0,1,0,1,1
0.038099375,0,0,0,1,1
0.038702500,0,1,0,1,1
0.039003125,0,0,0,1,1
0.039606250,0,1,0,1,1
0.039906875,0,0,0,1,1
0.040509875,1,0,0,1,1
0.046447750,0,0,0,1,1
0.047049000,0,1,0,1,1
0.047349625,0,0,0,1,1
0.047952750,0,1,0,1,1
0.048253375,0,0,0,1,1
0.048556000,0,0,1,1,1
0.048856625,0,1,1,1,1
0.049157250,0,0,1,1,1
0.049760375,0,1,1,1,1
0.050061000,0,0,1,1,1
0.050664125,0,1,1,1,1
0.050964750,0,0,1,1,1
0.051567875,0,1,1,1,1
0.051868500,0,0,1,1,1
0.052471625,0,1,1,1,1
0.052772250,0,0,1,1,1
0.053373250,0,1,1,1,1
0.053676000,0,0,1,1,1
0.053977000,0,0,0,1,1
0.054277625,0,1,0,1,1
0.054580125,0,0,0,1,1
0.055181250,0,1,0,1,1
0.055483875,0,0,0,1,1
0.056085000,0,1,0,1,1
0.056385625,0,0,0,1,1
0.056988750,0,1,0,1,1
0.057289375,0,0,0,1,1
0.057892500,0,1,0,1,1
0.058193000,0,0,0,1,1
0.058796250,0,1,0,1,1
0.059096750,0,0,0,1,1
0.059700000,0,1,0,1,1
0.060000500,0,0,0,1,1
0.060603750,0,1,0,1,1
0.060904250,0,0,0,1,1
0.061507250,1,0,0,1,1
0.067445250,0,0,0,1,1
0.068046500,0,1,0,1,1
0.068347000,0,0,0,1,1
0.068950250,0,1,0,1,1
0.069250750,0,0,0,1,1
0.069553500,0,0,1,1,1
0.069854125,0,1,1,1,1
0.070154750,0,0,1,1,1
0.070757875,0,1,1,1,1
0.071058500,0,0,1,1,1
0.071661500,0,1,1,1,1
0.071962125,0,0,1,1,1
0.072565250,0,1,1,1,1
0.072865875,0,0,1,1,1
0.073469000,0,1,1,1,1
0.073769625,0,0,1,1,1
0.074370750,0,1,1,1,1
0.074673375,0,0,1,1,1
0.074974500,0,0,0,1,1
0.075275000,0,1,0,1,1
0.075577625,0,0,0,1,1
0.076178750,0,1,0,1,1
0.076481375,0,0,0,1,1
0.077082500,0,1,0,1,1
0.077383000,0,0,0,1,1
0.077986250,0,1,0,1,1
0.078286750,0,0,0,1,1
0.078890000,0,1,0,1,1
0.079190500,0,0,0,1,1
0.079793750,0,1,0,1,1
0.080094250,0,0,0,1,1
0.080697375,0,1,0,1,1
0.080998000,0,0,0,1,1
0.081601125,0,1,0,1,1
0.081901750,0,0,0,1,1
0.082504750,1,0,0,1,1
0.088442750,0,0,0,1,1
0.089044000,0,1,0,1,1
0.089344500,0,0,0,1,1
0.089947625,0,1,0,1,1
0.090248250,0,0,0,1,1
0.090550875,0,0,1,1,1
0.090851500,0,1,1,1,1
0.091152125,0,0,1,1,1
0.091755250,0,1,1,1,1
0.092055875,0,0,1,1,1
0.092659000,0,1,1,1,1
0.092959625,0,0,1,1,1
0.093562750,0,1,1,1,1
0.093863375,0,0,1,1,1
0.094466500,0,1,1,1,1
0.094767125,0,0,1,1,1
0.095368125,0,1,1,1,1
0.095670875,0,0,1,1,1
0.095971875,0,0,0,1,1
0.096272500,0,1,0,1,1
0.096575000,0,0,0,1,1
0.097176250,0,1,0,1,1
0.097478750,0,0,0,1,1
0.098079875,0,1,0,1,1
0.098380500,0,0,0,1,1
0.098983625,0,1,0,1,1
0.099284250,0,0,0,1,1
0.099887375,0,1,0,1,1
0.100188000,0,0,0,1,1
0.100791125,0,1,0,1,1
0.101091750,0,0,0,1,1
0.101694875,0,1,0,1,1
0.101995375,0,0,0,1,1
0.102598625,0,1,0,1,1
0.102899125,0,0,0,1,1
0.103502125,1,0,0,1,1
0.109440125,0,0,0,1,1
0.110041375,0,1,0,1,1
0.110342000,0,0,0,1,1
0.110945125,0,1,0,1,1
0.111245625,0,0,0,1,1
0.111548375,0,0,1,1,1
0.111849000,0,1,1,1,1
0.112149625,0,0,1,1,1
0.112752750,0,1,1,1,1
0.113053375,0,0,1,1,1
0.113656500,0,1,1,1,1
0.113957125,0,0,1,1,1
0.114560250,0,1,1,1,1
0.114860875,0,0,1,1,1
0.115463875,0,1,1,1,1
0.115764500,0,0,1,1,1
0.116365625,0,1,1,1,1
0.116668250,0,0,1,1,1
0.116969375,0,0,0,1,1
0.117269875,0,1,0,1,1
0.117572500,0,0,0,1,1
0.118173625,0,1,0,1,1
0.118476250,0,0,0,1,1
0.119077375,0,1,0,1,1
0.119378000,0,0,0,1,1
0.119981125,0,1,0,1,1
0.120281625,0,0,0,1,1
0.120884875,0,1,0,1,1
0.121185375,0,0,0,1,1
0.121788625,0,1,0,1,1
0.122089125,0,0,0,1,1
0.122692375,0,1,0,1,1
0.122992875,0,0,0,1,1
0.123596000,0,1,0,1,1
0.123896625,0,0,0,1,1
0.124499625,1,0,0,1,1
0.130437625,0,0,0,1,1
0.131038875,0,1,0,1,1
0.131339375,0,0,0,1,1
0.131942625,0,1,0,1,1
0.132243125,0,0,0,1,1
0.132545875,0,0,1,1,1
0.132846375,0,1,1,1,1
0.133147125,0,0,1,1,1
0.133750125,0,1,1,1,1
0.134050750,0,0,1,1,1
0.134653875,0,1,1,1,1
0.134954500,0,0,1,1,1
0.135557625,0,1,1,1,1
0.135858250,0,0,1,1,1
0.136461375,0,1,1,1,1
0.136762000,0,0,1,1,1
0.137363125,0,1,1,1,1
0.137665750,0,0,1,1,1
0.137966750,0,0,0,1,1
0.138267375,0,1,0,1,1
0.138570000,0,0,0,1,1
0.139171125,0,1,0,1,1
0.139473750,0,0,0,1,1
0.140074875,0,1,0,1,1
0.140375375,0,0,0,1,1
0.140978625,0,1,0,1,1
0.141279125,0,0,0,1,1
0.141882250,0,1,0,1,1
0.142182875,0,0,0,1,1
0.142786000,0,1,0,1,1
0.143086625,0,0,0,1,1
0.143689750,0,1,0,1,1
0.143990375,0,0,0,1,1
0.144593500,0,1,0,1,1
0.144894125,0,0,0,1,1
0.145497125,1,0,0,1,1
0.151435000,0,0,0,1,1
0.152036250,0,1,0,1,1
0.152336875,0,0,0,1,1
0.152940000,0,1,0,1,1
0.153240625,0,0,0,1,1
0.153543250,0,0,1,1,1
0.153843875,0,1,1,1,1
0.154144500,0,0,1,1,1
0.154747625,0,1,1,1,1
0.155048250,0,0,1,1,1
0.155651375,0,1,1,1,1
0.155952000,0,0,1,1,1
0.156555125,0,1,1,1,1
0.156855750,0,0,1,1,1
0.157458875,0,1,1,1,1
0.157759500,0,0,1,1,1
0.158360500,0,1,1,1,1
0.158663250,0,0,1,1,1
0.158964250,0,0,0,1,1
0.159264875,0,1,0,1,1
0.159567375,0,0,0,1,1
0.160168500,0,1,0,1,1
0.160471125,0,0,0,1,1
0.161072250,0,1,0,1,1
0.161372875,0,0,0,1,1
0.161976000,0,1,0,1,1
0.162276625,0,0,0,1,1
0.162879750,0,1,0,1,1
0.163180375,0,0,0,1,1
0.163783500,0,1,0,1,1
0.164084000,0,0,0,1,1
0.164687250,0,1,0,1,1
0.164987750,0,0,0,1,1
0.165591000,0,1,0,1,1
0.165891500,0,0,0,1,1
0.166494500,1,0,0,1,1
0.172432500,0,0,0,1,1
0.173033750,0,1,0,1,1
0.173334375,0,0,0,1,1
0.173937500,0,1,0,1,1
0.174238000,0,0,0,1,1
0.174540750,0,0,1,1,1
0.174841375,0,1,1,1,1
0.175142000,0,0,1,1,1
0.175745125,0,1,1,1,1
0.176045750,0,0,1,1,1
0.176648750,0,1,1,1,1
0.176949375,0,0,1,1,1
0.177552500,0,1,1,1,1
0.177853125,0,0,1,1,1
0.178456250,0,1,1,1,1
0.178756875,0,0,1,1,1
0.179358000,0,1,1,1,1
0.179660625,0,0,1,1,1
0.179961750,0,0,0,1,1
0.180262250,0,1,0,1,1
0.180564875,0,0,0,1,1
0.181166000,0,1,0,1,1
0.181468625,0,0,0,1,1
0.182069750,0,1,0,1,1
0.182370250,0,0,0,1,1
0.182973500,0,1,0,1,1
0.183274000,0,0,0,1,1
0.183877250,0,1,0,1,1
0.184177750,0,0,0,1,1
0.184781000,0,1,0,1,1
0.185081500,0,0,0,1,1
0.185684625,0,1,0,1,1
0.185985250,0,0,0,1,1
0.186588375,0,1,0,1,1
0.186889000,0,0,0,1,1
0.187492000,1,0,0,1,1
0.193430000,0,0,0,1,1
0.194031250,0,1,0,1,1
0.194331750,0,0,0,1,1
0.194934875,0,1,0,1,1
0.195235500,0,0,0,1,1
0.195538250,0,0,1,1,1
0.195838750,0,1,1,1,1
0.196139375,0,0,1,1,1
0.196742500,0,1,1,1,1
0.197043125,0,0,1,1,1
0.197646250,0,1,1,1,1
0.197946875,0,0,1,1,1
0.198550000,0,1,1,1,1
0.198850625,0,0,1,1,1
0.199453750,0,1,1,1,1
0.199754375,0,0,1,1,1
0.200355375,0,1,1,1,1
0.200658125,0,0,1,1,1
0.200959125,0,0,0,1,1
0.201259750,0,1,0,1,1
0.201562250,0,0,0,1,1
0.202163500,0,1,0,1,1
0.202466000,0,0,0,1,1
0.203067125,0,1,0,1,1
0.203367750,0,0,0,1,1
0.203970875,0,1,0,1,1
0.204271500,0,0,0,1,1
0.204874625,0,1,0,1,1
0.205175250,0,0,0,1,1
0.205778375,0,1,0,1,1
0.206079000,0,0,0,1,1
0.206682125,0,1,0,1,1
0.206982625,0,0,0,1,1
0.207585875,0,1,0,1,1
0.207886375,0,0,0,1,1
0.208489375,1,0,0,1,1
0.214427375,0,0,0,1,1
0.215028625,0,1,0,1,1
0.215329250,0,0,0,1,1
0.215932375,0,1,0,1,1
0.216233000,0,0,0,1,1
0.216535625,0,0,1,1,1
0.216836250,0,1,1,1,1
0.217136875,0,0,1,1,1
0.217740000,0,1,1,1,1
0.218040625,0,0,1,1,1
0.218643750,0,1,1,1,1
0.218944375,0,0,1,1,1
0.219547500,0,1,1,1,1
0.219848125,0,0,1,1,1
0.220451250,0,1,1,1,1
0.220751750,0,0,1,1,1
0.221352875,0,1,1,1,1
0.221655500,0,0,1,1,1
0.221956625,0,0,0,1,1
0.222257125,0,1,0,1,1
0.222559750,0,0,0,1,1
0.223160875,0,1,0,1,1
0.223463500,0,0,0,1,1
0.224064625,0,1,0,1,1
0.224365250,0,0,0,1,1
0.224968375,0,1,0,1,1
0.225268875,0,0,0,1,1
0.225872125,0,1,0,1,1
0.226172625,0,0,0,1,1
0.226775875,0,1,0,1,1
0.227076375,0,0,0,1,1
0.227679625,0,1,0,1,1
0.227980125,0,0,0,1,1
0.228583250,0,1,0,1,1
0.228883875,0,0,0,1,1
0.229486875,1,0,0,1,1
0.235424875,0,0,0,1,1
0.236026125,0,1,0,1,1
0.236326625,0,0,0,1,1
0.236929875,0,1,0,1,1
0.237230375,0,0,0,1,1
0.237533125,0,0,1,1,1
0.237833625,0,1,1,1,1
0.238134375,0,0,1,1,1
0.238737375,0,1,1,1,1
0.239038000,0,0,1,1,1
0.239641125,0,1,1,1,1
0.239941750,0,0,1,1,1
0.240544875,0,1,1,1,1
0.240845500,0,0,1,1,1
0.241448625,0,1,1,1,1
0.241749250,0,0,1,1,1
0.242350375,0,1,1,1,1
0.242653000,0,0,1,1,1
0.242954000,0,0,0,1,1
0.243254625,0,1,0,1,1
0.243557250,0,0,0,1,1
0.244158375,0,1,0,1,1
0.244461000,0,0,0,1,1
0.245062125,0,1,0,1,1
0.245362625,0,0,0,1,1
0.245965875,0,1,0,1,1
0.246266375,0,0,0,1,1
0.246869500,0,1,0,1,1
0.247170125,0,0,0,1,1
0.247773250,0,1,0,1,1
0.248073875,0,0,0,1,1
0.248677000,0,1,0,1,1
0.248977625,0,0,0,1,1
0.249580750,0,1,0,1,1
0.249881375,0,0,0,1,1
0.250484375,1,0,0,1,1
0.256422250,0,0,0,1,1
0.257023500,0,1,0,1,1
0.257324125,0,0,0,1,1
0.257927250,0,1,0,1,1
0.258227875,0,0,0,1,1
0.258530500,0,0,1,1,1
0.258831125,0,1,1,1,1
0.259131750,0,0,1,1,1
0.259734875,0,1,1,1,1
0.260035500,0,0,1,1,1
0.260638625,0,1,1,1,1
0.260939250,0,0,1,1,1
0.261542375,0,1,1,1,1
0.261843000,0,0,1,1,1
0.262446125,0,1,1,1,1
0.262746750,0,0,1,1,1
0.263347750,0,1,1,1,1
0.263650500,0,0,1,1,1
0.263951500,0,0,0,1,1
0.264252125,0,1,0,1,1
0.264554625,0,0,0,1,1
0.265155750,0,1,0,1,1
0.265458375,0,0,0,1,1
0.266059500,0,1,0,1,1
0.266360125,0,0,0,1,1
0.266963250,0,1,0,1,1
0.267263875,0,0,0,1,1
0.267867000,0,1,0,1,1
0.268167625,0,0,0,1,1
0.268770750,0,1,0,1,1
0.269071250,0,0,0,1,1
0.269674500,0,1,0,1,1
0.269975000,0,0,0,1,1
0.270578250,0,1,0,1,1
0.270878750,0,0,0,1,1
0.271481750,1,0,0,1,1
0.277419750,0,0,0,1,1
0.278021000,0,1,0,1,1
0.278321625,0,0,0,1,1
0.278924750,0,1,0,1,1
0.279225250,0,0,0,1,1
0.279528000,0,0,1,1,1
0.279828625,0,1,1,1,1
0.280129250,0,0,1,1,1
0.280732375,0,1,1,1,1
0.281033000,0,0,1,1,1
0.281636000,0,1,1,1,1
0.281936625,0,0,1,1,1
0.282539750,0,1,1,1,1
0.282840375,0,0,1,1,1
0.283443500,0,1,1,1,1
0.283744125,0,0,1,1,1
0.284345250,0,1,1,1,1
0.284647875,0,0,1,1,1
0.284949000,0,0,0,1,1
0.285249500,0,1,0,1,1
0.285552125,0,0,0,1,1
0.286153250,0,1,0,1,1
0.286455875,0,0,0,1,1
0.287057000,0,1,0,1,1
0.287357500,0,0,0,1,1
0.287960750,0,1,0,1,1
0.288261250,0,0,0,1,1
0.288864500,0,1,0,1,1
0.289165000,0,0,0,1,1
0.289768250,0,1,0,1,1
0.290068750,0,0,0,1,1
0.290671875,0,1,0,1,1
0.290972500,0,0,0,1,1
0.291575625,0,1,0,1,1
0.291876250,0,0,0,1,1
0.292479250,1,0,0,1,1
0.298417250,0,0,0,1,1
0.299018500,0,1,0,1,1
0.299319000,0,0,0,1,1
0.299922125,0,1,0,1,1
0.300222750,0,0,0,1,1
0.300525500,0,0,1,1,1
0.300826000,0,1,1,1,1
0.301126750,0,0,1,1,1
0.301729750,0,1,1,1,1
0.302030375,0,0,1,1,1
0.302633500,0,1,1,1,1
0.302934125,0,0,1,1,1
0.303537250,0,1,1,1,1
0.303837875,0,0,1,1,1
0.304441000,0,1,1,1,1
0.304741625,0,0,1,1,1
0.305342625,0,1,1,1,1
0.305645375,0,0,1,1,1
0.305946375,0,0,0,1,1
0.306247000,0,1,0,1,1
0.306549625,0,0,0,1,1
0.307150750,0,1,0,1,1
0.307453250,0,0,0,1,1
0.308054375,0,1,0,1,1
0.308355000,0,0,0,1,1
0.308958125,0,1,0,1,1
0.309258750,0,0,0,1,1
0.309861875,0,1,0,1,1
0.310162500,0,0,0,1,1
0.310765625,0,1,0,1,1
0.311066250,0,0,0,1,1
0.311669375,0,1,0,1,1
0.311969875,0,0,0,1,1
0.312573125,0,1,0,1,1
0.312873625,0,0,0,1,1
0.313476625,1,0,0,1,1
0.319414625,0,0,0,1,1
0.320015875,0,1,0,1,1
0.320316500,0,0,0,1,1
0.320919625,0,1,0,1,1
0.321220250,0,0,0,1,1
0.321522875,0,0,1,1,1
0.321823500,0,1,1,1,1
0.322124125,0,0,1,1,1
0.322727250,0,1,1,1,1
0.323027875,0,0,1,1,1
0.323631000,0,1,1,1,1
0.323931625,0,0,1,1,1
0.324534750,0,1,1,1,1
0.324835375,0,0,1,1,1
0.325438500,0,1,1,1,1
0.325739000,0,0,1,1,1
0.326340125,0,1,1,1,1
0.326642750,0,0,1,1,1
0.326943875,0,0,0,1,1
0.327244375,0,1,0,1,1
0.327547000,0,0,0,1,1
0.328148125,0,1,0,1,1
0.328450750,0,0,0,1,1
0.329051875,0,1,0,1,1
0.329352500,0,0,0,1,1
0.329955625,0,1,0,1,1
0.330256125,0,0,0,1,1
0.330859375,0,1,0,1,1
0.331159875,0,0,0,1,1
0.331763125,0,1,0,1,1
0.332063625,0,0,0,1,1
0.332666875,0,1,0,1,1
0.332967375,0,0,0,1,1
0.333570625,0,1,0,1,1
0.333871125,0,0,0,1,1
0.334474125,1,0,0,1,1
0.340412125,0,0,0,1,1
0.341013375,0,1,0,1,1
0.341313875,0,0,0,1,1
0.341917125,0,1,0,1,1
0.342217625,0,0,0,1,1
0.342520375,0,0,1,1,1
0.342821000,0,1,1,1,1
0.343121625,0,0,1,1,1
0.343724750,0,1,1,1,1
0.344025250,0,0,1,1,1
0.344628375,0,1,1,1,1
0.344929000,0,0,1,1,1
0.345532125,0,1,1,1,1
0.345832750,0,0,1,1,1
0.346435875,0,1,1,1,1
0.346736500,0,0,1,1,1
0.347337625,0,1,1,1,1
0.347640250,0,0,1,1,1
0.347941250,0,0,0,1,1
0.348241875,0,1,0,1,1
0.348544500,0,0,0,1,1
0.349145625,0,1,0,1,1
0.349448250,0,0,0,1,1
0.350049375,0,1,0,1,1
0.350349875,0,0,0,1,1
0.350953125,0,1,0,1,1
0.351253625,0,0,0,1,1
0.351856750,0,1,0,1,1
0.352157375,0,0,0,1,1
0.352760500,0,1,0,1,1
0.353061125,0,0,0,1,1
0.353664250,0,1,0,1,1
0.353964875,0,0,0,1,1
0.354568000,0,1,0,1,1
0.354868625,0,0,0,1,1
0.355471625,1,0,0,1,1
0.361409500,0,0,0,1,1
0.362010750,0,1,0,1,1
0.362311375,0,0,0,1,1
0.362914500,0,1,0,1,1
0.363215125,0,0,0,1,1
0.363517750,0,0,1,1,1
0.363818375,0,1,1,1,1
0.364119000,0,0,1,1,1
0.364722125,0,1,1,1,1
0.365022750,0,0,1,1,1
0.365625875,0,1,1,1,1
0.365926500,0,0,1,1,1
0.366529625,0,1,1,1,1
0.366830250,0,0,1,1,1
0.367433375,0,1,1,1,1
0.367734000,0,0,1,1,1
0.368335000,0,1,1,1,1
0.368637750,0,0,1,1,1
0.368938750,0,0,0,1,1
0.369239375,0,1,0,1,1
0.369541875,0,0,0,1,1
0.370143000,0,1,0,1,1
0.370445625,0,0,0,1,1
0.371046750,0,1,0,1,1
0.371347375,0,0,0,1,1
0.371950500,0,1,0,1,1
0.372251125,0,0,0,1,1
0.372854250,0,1,0,1,1
0.373154875,0,0,0,1,1
0.373758000,0,1,0,1,1
0.374058500,0,0,0,1,1
0.374661750,0,1,0,1,1
0.374962250,0,0,0,1,1
0.375565500,0,1,0,1,1
0.375866000,0,0,0,1,1
0.376469000,1,0,0,1,1
0.382407000,0,0,0,1,1
0.383008250,0,1,0,1,1
0.383308875,0,0,0,1,1
0.383912000,0,1,0,1,1
0.384212500,0,0,0,1,1
0.384515250,0,0,1,1,1
0.384815875,0,1,1,1,1
0.385116500,0,0,1,1,1
0.385719625,0,1,1,1,1
0.386020250,0,0,1,1,1
0.386623375,0,1,1,1,1
0.386923875,0,0,1,1,1
0.387527000,0,1,1,1,1
0.387827625,0,0,1,1,1
0.388430750,0,1,1,1,1
0.388731375,0,0,1,1,1
0.389332500,0,1,1,1,1
0.389635125,0,0,1,1,1
0.389936250,0,0,0,1,1
0.390236750,0,1,0,1,1
0.390539375,0,0,0,1,1
0.391140500,0,1,0,1,1
0.391443125,0,0,0,1,1
0.392044250,0,1,0,1,1
0.392344750,0,0,0,1,1
0.392948000,0,1,0,1,1
0.393248500,0,0,0,1,1
0.393851750,0,1,0,1,1
0.394152250,0,0,0,1,1
0.394755500,0,1,0,1,1
0.395056000,0,0,0,1,1
0.395659125,0,1,0,1,1
0.395959750,0,0,0,1,1
0.396562875,0,1,0,1,1
0.396863500,0,0,0,1,1
0.397466500,1,0,0,1,1
0.403404500,0,0,0,1,1
0.404005750,0,1,0,1,1
0.404306250,0,0,0,1,1
0.404909375,0,1,0,1,1
0.405210000,0,0,0,1,1
0.405512750,0,0,1,1,1
0.405813250,0,1,1,1,1
0.406114000,0,0,1,1,1
0.406717000,0,1,1,1,1
0.407017625,0,0,1,1,1
0.407620750,0,1,1,1,1
0.407921375,0,0,1,1,1
0.408524500,0,1,1,1,1
0.408825125,0,0,1,1,1
0.409428250,0,1,1,1,1
0.409728875,0,0,1,1,1
0.410329875,0,1,1,1,1
0.410632625,0,0,1,1,1
0.410933625,0,0,0,1,1
0.411234250,0,1,0,1,1
0.411536875,0,0,0,1,1
0.412138000,0,1,0,1,1
0.412440500,0,0,0,1,1
0.413041750,0,1,0,1,1
0.413342250,0,0,0,1,1
0.413945375,0,1,0,1,1
0.414246000,0,0,0,1,1
0.414849125,0,1,0,1,1
0.415149750,0,0,0,1,1
0.415752875,0,1,0,1,1
0.416053500,0,0,0,1,1
0.416656625,0,1,0,1,1
0.416957125,0,0,0,1,1
0.417560375,0,1,0,1,1
0.417860875,0,0,0,1,1
0.418464000,1,0,0,1,1
0.424401875,0,0,0,1,1
0.425003125,0,1,0,1,1
0.425303750,0,0,0,1,1
0.425906875,0,1,0,1,1
0.426207500,0,0,0,1,1
0.426510125,0,0,1,1,1
0.426810750,0,1,1,1,1
0.427111375,0,0,1,1,1
0.427714500,0,1,1,1,1
0.428015125,0,0,1,1,1
0.428618250,0,1,1,1,1
0.428918875,0,0,1,1,1
0.429522000,0,1,1,1,1
0.429822625,0,0,1,1,1
0.430425750,0,1,1,1,1
0.430726250,0,0,1,1,1
0.431327375,0,1,1,1,1
0.431630000,0,0,1,1,1
0.431931125,0,0,0,1,1
0.432231625,0,1,0,1,1
0.432534250,0,0,0,1,1
0.433135375,0,1,0,1,1
0.433438000,0,0,0,1,1
0.434039125,0,1,0,1,1
0.434339750,0,0,0,1,1
0.434942875,0,1,0,1,1
0.435243375,0,0,0,1,1
0.435846625,0,1,0,1,1
0.436147125,0,0,0,1,1
0.436750375,0,1,0,1,1
0.437050875,0,0,0,1,1
0.437654125,0,1,0,1,1
0.437954625,0,0,0,1,1
0.438557875,0,1,0,1,1
0.438858375,0,0,0,1,1
0.439461375,1,0,0,1,1
0.445399375,0,0,0,1,1
0.446000625,0,1,0,1,1
0.446301125,0,0,0,1,1
0.446904375,0,1,0,1,1
0.447204875,0,0,0,1,1
0.447507625,0,0,1,1,1
0.447808250,0,1,1,1,1
0.448108875,0,0,1,1,1
0.448712000,0,1,1,1,1
0.449012500,0,0,1,1,1
0.449615625,0,1,1,1,1
0.449916250,0,0,1,1,1
0.450519375,0,1,1,1,1
0.450820000,0,0,1,1,1
0.451423125,0,1,1,1,1
0.451723750,0,0,1,1,1
0.452324875,0,1,1,1,1
0.452627500,0,0,1,1,1
0.452928500,0,0,0,1,1
0.453229125,0,1,0,1,1
0.453531750,0,0,0,1,1
0.454132875,0,1,0,1,1
0.454435500,0,0,0,1,1
0.455036625,0,1,0,1,1
0.455337125,0,0,0,1,1
0.455940375,0,1,0,1,1
0.456240875,0,0,0,1,1
0.456844000,0,1,0,1,1
0.457144625,0,0,0,1,1
0.457747750,0,1,0,1,1
0.458048375,0,0,0,1,1
0.458651500,0,1,0,1,1
0.458952125,0,0,0,1,1
0.459555250,0,1,0,1,1
0.459855875,0,0,0,1,1
0.460458875,1,0,0,1,1
0.466396875,0,0,0,1,1
0.466998125,0,1,0,1,1
0.467298625,0,0,0,1,1
0.467901750,0,1,0,1,1
0.468202375,0,0,0,1,1
0.468505000,0,0,1,1,1
0.468805625,0,1,1,1,1
0.469106250,0,0,1,1,1
0.469709375,0,1,1,1,1
0.470010000,0,0,1,1,1
0.470613125,0,1,1,1,1
0.470913750,0,0,1,1,1
0.471516875,0,1,1,1,1
0.471817500,0,0,1,1,1
0.472420625,0,1,1,1,1
0.472721250,0,0,1,1,1
0.473322250,0,1,1,1,1
0.473625000,0,0,1,1,1
0.473926000,0,0,0,1,1
0.474226625,0,1,0,1,1
0.474529125,0,0,0,1,1
0.475130250,0,1,0,1,1
0.475432875,0,0,0,1,1
0.476034000,0,1,0,1,1
0.476334625,0,0,0,1,1
0.476937750,0,1,0,1,1
0.477238375,0,0,0,1,1
0.477841500,0,1,0,1,1
0.478142125,0,0,0,1,1
0.478745250,0,1,0,1,1
0.479045750,0,0,0,1,1
0.479649000,0,1,0,1,1
0.479949500,0,0,0,1,1
0.480552750,0,1,0,1,1
0.480853250,0,0,0,1,1
0.481456250,1,0,0,1,1
0.487394250,0,0,0,1,1
0.487995500,0,1,0,1,1
0.488296125,0,0,0,1,1
0.488899250,0,1,0,1,1
0.489199750,0,0,0,1,1
0.489502500,0,0,1,1,1
0.489803125,0,1,1,1,1
0.490103750,0,0,1,1,1
0.490706875,0,1,1,1,1
0.491007500,0,0,1,1,1
0.491610625,0,1,1,1,1
0.491911125,0,0,1,1,1
0.492514250,0,1,1,1,1
0.492814875,0,0,1,1,1
0.493418000,0,1,1,1,1
0.493718625,0,0,1,1,1
0.494319750,0,1,1,1,1
0.494622375,0,0,1,1,1
0.494923500,0,0,0,1,1
0.495224000,0,1,0,1,1
0.495526625,0,0,0,1,1
0.496127750,0,1,0,1,1
0.496430375,0,0,0,1,1
0.497031500,0,1,0,1,1
0.497332000,0,0,0,1,1
0.497935250,0,1,0,1,1
0.498235750,0,0,0,1,1
0.498839000,0,1,0,1,1
0.499139500,0,0,0,1,1
0.499742750,0,1,0,1,1
0.500043250,0,0,0,1,1
0.500646375,0,1,0,1,1
0.500947000,0,0,0,1,1
0.501550125,0,1,0,1,1
0.501850750,0,0,0,1,1
0.502453750,1,0,0,1,1
0.508391750,0,0,0,1,1
0.508993000,0,1,0,1,1
0.509293500,0,0,0,1,1
0.509896750,0,1,0,1,1
0.510197250,0,0,0,1,1
0.510500000,0,0,1,1,1
0.510800500,0,1,1,1,1
0.511101250,0,0,1,1,1
0.511704250,0,1,1,1,1
0.512004875,0,0,1,1,1
0.512608000,0,1,1,1,1
0.512908625,0,0,1,1,1
0.513511750,0,1,1,1,1
0.513812375,0,0,1,1,1
0.514415500,0,1,1,1,1
0.514716125,0,0,1,1,1
0.515317125,0,1,1,1,1
0.515619875,0,0,1,1,1
0.515920875,0,0,0,1,1
0.516221500,0,1,0,1,1
0.516524125,0,0,0,1,1
0.517125250,0,1,0,1,1
0.517427750,0,0,0,1,1
0.518029000,0,1,0,1,1
0.518329500,0,0,0,1,1
0.518932625,0,1,0,1,1
0.519233250,0,0,0,1,1
0.519836375,0,1,0,1,1
0.520137000,0,0,0,1,1
0.520740125,0,1,0,1,1
0.521040750,0,0,0,1,1
0.521643875,0,1,0,1,1
0.521944375,0,0,0,1,1
0.522547625,0,1,0,1,1
0.522848125,0,0,0,1,1
0.523451250,1,0,0,1,1
0.529389125,0,0,0,1,1
0.529990375,0,1,0,1,1
0.530291000,0,0,0,1,1
0.530894125,0,1,0,1,1
