Time [s],Channel 0,Channel 1,Channel 2,Channel 3,Channel 4
0.000000000,1,1,1,1,1
0.296184750,1,1,0,0,1
0.296188125,1,0,0,0,1
0.296192625,1,1,0,0,1
0.296197500,1,0,0,0,1
0.296203625,1,1,0,0,1
0.296206875,1,0,0,0,1
0.296213000,1,1,0,0,1
0.296216250,1,0,0,0,1
0.296220125,1,1,1,1,1
0.296220375,1,0,0,0,1
0.296220500,1,1,1,1,1
0.296221250,1,0,0,0,1
0.296221375,1,1,1,1,1
0.296222375,1,1,0,0,1
0.296225625,1,0,0,0,1
0.296231750,1,1,0,0,1
0.296235125,1,0,0,0,1
0.296238500,1,1,1,1,1
0.670139875,1,1,0,0,1
0.670142750,1,0,0,0,1
0.670148625,1,1,0,0,1
0.670152250,1,0,0,0,1
0.670157125,1,1,0,0,1
0.670157500,1,1,1,1,1
0.670158250,1,1,1,0,1
0.670158375,1,1,0,0,1
0.670161625,1,0,0,0,1
0.670162625,1,1,1,1,1
0.670162875,1,0,0,0,1
0.670163000,1,1,1,1,1
0.670163250,1,0,0,0,1
0.670163875,1,1,1,1,1
0.670164125,1,0,0,0,1
0.670166500,1,1,1,1,1
0.670167750,1,1,0,0,1
0.670171000,1,0,0,0,1
0.670175875,1,1,1,1,1
0.670177125,1,1,0,0,1
0.670180375,1,0,0,0,1
0.670184750,1,1,1,1,1
0.670185000,1,0,0,0,1
0.670185125,1,1,1,1,1
0.670185875,1,1,1,0,1
0.670186000,1,1,1,1,1
0.670186500,1,1,0,0,1
0.670189750,1,0,0,0,1
0.670193250,1,1,1,1,1
1.044091875,1,1,1,0,1
1.044092125,1,1,1,1,1
1.044094750,1,1,0,0,1
1.044097750,1,0,0,0,1
1.044103625,1,1,1,1,1
1.044103750,1,1,0,0,1
1.044107125,1,0,0,0,1
1.044113000,1,1,1,1,1
1.044113125,1,1,0,0,1
1.044116500,1,0,0,0,1
1.044122375,1,1,1,1,1
1.044122625,1,1,0,0,1
1.044125875,1,0,0,0,1
1.044131750,1,1,0,0,1
1.044131875,1,1,1,1,1
1.044132000,1,1,0,0,1
1.044135250,1,0,0,0,1
1.044138250,1,1,1,1,1
1.044138500,1,0,0,0,1
1.044138625,1,1,1,1,1
1.044138875,1,0,0,0,1
1.044139500,1,1,1,1,1
1.044141375,1,1,1,0,1
1.044141750,1,1,0,0,1
1.044144625,1,0,0,0,1
1.044148125,1,1,1,1,1
1.418049625,1,1,0,0,1
1.418049750,1,1,1,1,1
1.418049875,1,1,0,0,1
1.418053000,1,0,0,0,1
1.418059000,1,1,0,0,1
1.418062375,1,0,0,0,1
1.418067500,1,1,1,1,1
1.418068500,1,1,0,0,1
1.418071750,1,0,0,0,1
1.418076875,1,1,1,1,1
1.418077875,1,1,0,0,1
1.418081125,1,0,0,0,1
1.418086250,1,1,1,1,1
1.418087250,1,1,0,0,1
1.418090625,1,0,0,0,1
1.418095625,1,1,1,1,1
1.418096625,1,1,0,0,1
1.418100000,1,0,0,0,1
1.418103375,1,1,1,1,1
1.792004875,1,1,0,0,1
1.792008000,1,0,0,0,1
1.792014125,1,1,0,0,1
1.792017375,1,0,0,0,1
1.792023500,1,1,0,0,1
1.792026875,1,0,0,0,1
1.792030750,1,1,0,0,1
1.792031500,1,1,1,1,1
1.792033000,1,1,0,0,1
1.792036250,1,0,0,0,1
1.792039875,1,1,1,1,1
1.792040000,1,0,0,0,1
1.792040125,1,1,1,1,1
1.792042375,1,1,0,0,1
1.792045625,1,0,0,0,1
1.792049625,1,1,0,0,1
1.792050375,1,1,1,1,1
1.792051750,1,1,0,0,1
1.792055000,1,0,0,0,1
1.792058375,1,1,1,1,1
2.165959875,1,1,0,0,1
2.165963125,1,0,0,0,1
2.165969125,1,1,0,0,1
2.165972500,1,0,0,0,1
2.165978625,1,1,0,0,1
2.165981875,1,0,0,0,1
2.165985750,1,1,1,1,1
2.165986375,1,0,0,0,1
2.165986875,1,1,1,1,1
2.165988000,1,1,0,0,1
2.165991250,1,0,0,0,1
2.165995625,1,1,1,1,1
2.165997375,1,1,0,0,1
2.166000750,1,0,0,0,1
2.166005000,1,1,1,1,1
2.166006750,1,1,0,0,1
2.166010125,1,0,0,0,1
2.166013500,1,1,1,1,1
2.539915625,1,1,0,0,1
2.539918875,1,0,0,0,1
2.539921125,1,1,1,1,1
2.539921375,1,0,0,0,1
2.539921625,1,1,1,1,1
2.539921750,1,0,0,0,1
2.539922000,1,1,1,1,1
2.539922125,1,0,0,0,1
2.539922750,1,1,1,1,1
2.539925000,1,1,0,0,1
2.539928250,1,0,0,0,1
2.539934375,1,1,0,0,1
2.539937750,1,0,0,0,1
2.539942625,1,1,1,1,1
2.539943750,1,1,1,0,1
2.539944000,1,1,0,0,1
2.539947125,1,0,0,0,1
2.539951500,1,1,0,0,1
2.539951750,1,1,1,1,1
2.539953250,1,1,0,0,1
2.539956500,1,0,0,0,1
2.539961375,1,1,1,1,1
2.539962625,1,1,0,0,1
2.539965875,1,0,0,0,1
2.539969375,1,1,1,1,1
2.913870000,1,1,0,0,1
2.913873250,1,0,0,0,1
2.913878750,1,1,1,1,1
2.913879000,1,0,0,0,1
2.913879250,1,1,1,0,1
2.913879375,1,1,0,0,1
2.913882625,1,0,0,0,1
2.913888750,1,1,0,0,1
2.913892000,1,0,0,0,1
2.913897125,1,1,1,1,1
2.913898125,1,1,0,0,1
2.913901375,1,0,0,0,1
2.913905875,1,1,0,0,1
2.913906000,1,1,1,1,1
2.913907500,1,1,0,0,1
2.913910875,1,0,0,0,1
2.913915625,1,1,0,0,1
2.913915875,1,1,1,1,1
2.913916875,1,1,0,0,1
2.913920250,1,0,0,0,1
2.913923625,1,1,1,1,1
3.287825125,1,1,0,0,1
3.287828375,1,0,0,0,1
3.287833125,1,1,0,0,1
3.287837750,1,0,0,0,1
3.287843875,1,1,0,0,1
3.287847250,1,0,0,0,1
3.287853250,1,1,0,0,1
3.287856625,1,0,0,0,1
3.287858750,1,1,1,1,1
3.287859000,1,0,0,0,1
3.287859125,1,1,1,1,1
3.287859375,1,0,0,0,1
3.287859875,1,1,1,1,1
3.287862625,1,1,1,0,1
3.287862750,1,1,0,0,1
3.287866000,1,0,0,0,1
3.287870125,1,1,0,0,1
3.287870500,1,1,1,1,1
3.287872125,1,1,0,0,1
3.287875375,1,0,0,0,1
3.287878750,1,1,1,1,1
3.661780625,1,1,0,0,1
3.661783625,1,0,0,0,1
3.661789250,1,1,1,1,1
3.661789750,1,1,0,0,1
3.661793000,1,0,0,0,1
3.661794125,1,1,1,1,1
3.661794375,1,0,0,0,1
3.661798750,1,1,1,1,1
3.661799125,1,1,0,0,1
3.661802375,1,0,0,0,1
3.661808125,1,1,1,1,1
3.661808500,1,1,0,0,1
3.661811750,1,0,0,0,1
3.661817500,1,1,1,1,1
3.661817875,1,1,0,0,1
3.661821250,1,0,0,0,1
3.661824000,1,1,1,1,1
3.661824250,1,0,0,0,1
3.661824375,1,1,1,1,1
3.661824625,1,0,0,0,1
3.661825250,1,1,1,1,1
3.661827625,1,1,0,0,1
3.661830625,1,0,0,0,1
3.661834000,1,1,1,1,1
4.035735250,1,1,0,0,1
4.035738625,1,0,0,0,1
4.035744000,1,1,1,1,1
4.035744625,1,1,0,0,1
4.035748000,1,0,0,0,1
4.035751750,1,1,1,1,1
4.035752000,1,1,1,0,1
4.035752750,1,1,1,1,1
4.035754125,1,1,0,0,1
4.035757375,1,0,0,0,1
4.035759875,1,1,1,1,1
4.035760125,1,0,0,0,1
4.035760250,1,1,1,1,1
4.035760500,1,0,0,0,1
4.035761125,1,1,1,1,1
4.035763500,1,1,0,0,1
4.035766750,1,0,0,0,1
4.035772250,1,1,1,1,1
4.035772875,1,1,0,0,1
4.035776125,1,0,0,0,1
4.035781250,1,1,1,0,1
4.035781375,1,1,1,1,1
4.035782250,1,1,0,0,1
4.035785625,1,0,0,0,1
4.035789000,1,1,1,1,1
4.409691000,1,1,1,0,1
4.409691125,1,1,0,0,1
4.409694375,1,0,0,0,1
4.409700500,1,1,0,0,1
4.409703750,1,0,0,0,1
4.409708750,1,1,0,0,1
4.409709125,1,1,1,1,1
4.409709875,1,1,0,0,1
4.409713250,1,0,0,0,1
4.409718500,1,1,1,0,1
4.409718625,1,1,1,1,1
4.409719250,1,1,0,0,1
4.409722625,1,0,0,0,1
4.409728000,1,1,1,1,1
4.409728750,1,1,0,0,1
4.409732000,1,0,0,0,1
4.409735500,1,1,1,1,1
4.409735750,1,1,1,0,1
4.409735875,1,1,1,1,1
4.409736125,1,1,1,0,1
4.409736500,1,0,0,0,1
4.409736750,1,1,1,1,1
4.409738125,1,1,0,0,1
4.409741375,1,0,0,0,1
4.409744875,1,1,1,1,1
4.783645625,1,1,0,0,1
4.783648875,1,0,0,0,1
4.783653000,1,1,1,1,1
4.783653250,1,1,1,0,1
4.783653375,1,1,1,1,1
4.783654125,1,0,0,0,1
4.783654250,1,1,1,1,1
4.783655000,1,1,0,0,1
4.783658250,1,0,0,0,1
4.783663000,1,1,0,0,1
4.783663375,1,1,1,1,1
4.783664375,1,1,0,0,1
4.783667750,1,0,0,0,1
4.783673625,1,1,0,0,1
4.783677125,1,0,0,0,1
4.783683000,1,1,0,0,1
4.783686500,1,0,0,0,1
4.783691000,1,1,0,0,1
4.783691500,1,1,1,0,1
4.783691625,1,1,1,1,1
4.783692625,1,1,0,0,1
4.783695875,1,0,0,0,1
4.783697125,1,1,1,1,1
4.783697250,1,0,0,0,1
4.783697500,1,1,1,0,1
4.783697625,1,0,0,0,1
4.783699250,1,1,1,1,1
5.157600750,1,1,0,0,1
5.157604000,1,0,0,0,1
5.157608000,1,1,1,1,1
5.157608125,1,0,0,0,1
5.157608375,1,1,1,1,1
5.157609000,1,0,0,0,1
5.157609125,1,1,1,1,1
5.157610125,1,1,0,0,1
5.157613500,1,0,0,0,1
5.157618500,1,1,0,0,1
5.157618625,1,1,1,1,1
5.157619500,1,1,0,0,1
5.157622875,1,0,0,0,1
5.157624750,1,1,1,1,1
5.157625000,1,0,0,0,1
5.157628000,1,1,1,1,1
5.157629000,1,1,0,0,1
5.157632250,1,0,0,0,1
5.157634250,1,1,1,1,1
5.157634500,1,0,0,0,1
5.157635125,1,1,1,1,1
5.157638375,1,1,0,0,1
5.157641625,1,0,0,0,1
5.157646875,1,1,0,0,1
5.157651000,1,0,0,0,1
5.157654500,1,1,1,1,1
5.185024000,1,1,1,1,1
