Time [s],Channel 0,Channel 1,Channel 2,Channel 3,Channel 4
0.000000000,1,1,1,1,1
0.000256000,1,0,0,1,1
0.003759500,1,1,0,1,1
0.003759750,1,0,0,1,1
0.004134500,1,1,0,1,1
0.004134750,1,0,0,1,1
0.009366625,1,0,1,1,1
0.009370375,1,1,1,1,1
0.009372750,1,0,1,1,1
0.009374000,1,0,0,1,1
0.009633875,1,1,0,1,1
0.009634125,1,0,0,1,1
0.011104250,1,1,1,1,1
0.011719500,0,1,1,1,1
0.011719625,0,1,0,1,1
0.012006125,0,0,0,1,1
0.012006375,1,1,1,1,1
0.012625375,0,1,0,1,1
0.012908625,0,0,0,1,1
0.012908875,1,1,1,1,1
0.013226125,0,0,1,1,1
0.013510750,0,1,1,1,1
0.013811125,0,0,1,1,1
0.014413250,0,1,1,1,1
0.014713500,0,0,1,1,1
0.014885375,0,1,1,1,1
0.014885625,0,0,1,1,1
0.015315000,0,1,1,1,1
0.015615875,0,0,1,1,1
0.016217375,0,1,1,1,1
0.016518375,0,0,1,1,1
0.017119875,0,1,1,1,1
0.017420750,0,0,1,1,1
0.018021375,0,1,1,1,1
0.018322625,0,0,1,1,1
0.018634750,1,1,1,1,1
0.018951750,0,1,0,1,1
0.019236250,1,1,1,1,1
0.019852875,0,1,0,1,1
0.020138875,1,1,1,1,1
0.020753875,0,1,0,1,1
0.021040250,0,0,0,1,1
0.021040625,1,1,1,1,1
0.021659750,0,1,0,1,1
0.021943000,1,1,1,1,1
0.022560750,0,1,0,1,1
0.022845125,1,1,1,1,1
0.023462625,0,1,0,1,1
0.023747500,1,1,1,1,1
0.024367625,0,1,0,1,1
0.024649875,0,0,0,1,1
0.024650250,1,1,1,1,1
0.025268625,0,1,0,1,1
0.025552625,1,1,1,1,1
0.025865625,1,0,0,1,1
0.025882000,1,1,0,1,1
0.025882250,1,0,0,1,1
0.041255375,1,1,1,1,1
0.041255625,1,0,0,1,1
0.044380000,1,1,1,1,1
0.044380250,1,0,0,1,1
0.049504375,1,1,0,1,1
0.049504625,1,0,0,1,1
0.054882750,1,1,0,1,1
0.054882875,1,0,0,1,1
0.069357125,1,1,1,1,1
0.069357375,1,0,0,1,1
0.070879000,1,1,0,1,1
0.070879250,1,0,0,1,1
0.084489125,1,1,0,1,1
0.084489250,1,0,0,1,1
0.084577750,1,1,0,1,1
0.084577875,1,0,0,1,1
0.095356375,1,0,1,1,1
0.095359875,1,1,1,1,1
0.095362375,1,0,1,1,1
0.095363625,1,0,0,1,1
0.096874000,1,1,1,1,1
0.096874250,1,0,0,1,1
0.097093875,1,1,1,1,1
0.097711750,0,1,0,1,1
0.097995625,1,1,1,1,1
0.098622375,0,1,0,1,1
0.098909125,0,0,0,1,1
0.098909375,1,1,1,1,1
0.099227625,0,0,1,1,1
0.099511750,0,1,1,1,1
0.099812000,0,0,1,1,1
0.100414125,0,1,1,1,1
0.100714375,0,0,1,1,1
0.101248500,1,1,1,1,1
0.101248750,0,0,1,1,1
0.101315875,0,1,1,1,1
0.101616750,0,0,1,1,1
0.102218250,0,1,1,1,1
0.102519125,0,0,1,1,1
0.102877375,1,1,1,1,1
0.102877500,0,0,1,1,1
0.103120625,0,1,1,1,1
0.103421500,0,0,1,1,1
0.104022000,0,1,1,1,1
0.104323250,0,0,1,1,1
0.104624375,1,1,1,1,1
0.104940250,0,1,0,1,1
0.105225875,1,1,1,1,1
0.105841500,0,1,0,1,1
0.106128250,0,0,0,1,1
0.106128625,1,1,1,1,1
0.106747375,0,1,0,1,1
0.107029750,0,0,0,1,1
0.107030125,1,1,1,1,1
0.107648375,0,1,0,1,1
0.107932250,0,0,0,1,1
0.107932500,1,1,1,1,1
0.108549625,0,1,0,1,1
0.108834625,1,1,1,1,1
0.109451000,0,1,0,1,1
0.109737000,1,1,1,1,1
0.110352125,0,1,0,1,1
0.110639375,0,0,0,1,1
0.110639750,1,1,1,1,1
0.111253625,0,1,0,1,1
0.111541750,0,0,0,1,1
0.111541875,1,1,1,1,1
0.111858750,1,0,0,1,1
0.114874125,1,1,0,1,1
0.114874375,1,0,0,1,1
0.126245750,1,1,0,1,1
0.126246000,1,0,0,1,1
0.126875000,1,1,0,1,1
0.126875250,1,0,0,1,1
0.134369875,1,1,0,1,1
0.134370125,1,0,0,1,1
0.136744500,1,1,0,1,1
0.136744750,1,0,0,1,1
0.142493875,1,1,0,1,1
0.142494125,1,0,0,1,1
0.144493625,1,1,0,1,1
0.144493875,1,0,0,1,1
0.144868625,1,1,1,1,1
0.144868875,1,0,0,1,1
0.150243000,1,1,1,1,1
0.150243250,1,0,0,1,1
0.150618000,1,1,1,1,1
0.150618250,1,0,0,1,1
0.152617750,1,1,0,1,1
0.152618000,1,0,0,1,1
0.158367125,1,1,1,1,1
0.158367375,1,0,0,1,1
0.158873375,1,1,1,1,1
0.158873625,1,0,0,1,1
0.160741875,1,1,1,1,1
0.160742125,1,0,0,1,1
0.174240375,1,1,1,1,1
0.174240625,1,0,0,1,1
0.174615250,1,1,0,1,1
0.174615500,1,0,0,1,1
0.177952625,1,1,1,1,1
0.177952750,1,0,0,1,1
0.179614750,1,1,1,1,1
0.179615000,1,0,0,1,1
0.181345875,1,0,1,1,1
0.181349625,1,1,1,1,1
0.181352125,1,0,1,1,1
0.181353375,1,0,0,1,1
0.181614500,1,1,0,1,1
0.181614750,1,0,0,1,1
0.181989500,1,1,1,1,1
0.181989750,1,0,0,1,1
0.182364375,1,1,0,1,1
0.182364625,1,0,0,1,1
0.183083500,1,1,1,1,1
0.183699750,0,1,0,1,1
0.183985250,1,1,1,1,1
0.184601000,0,1,0,1,1
0.184887750,0,0,0,1,1
0.184888125,1,1,1,1,1
0.185206500,0,0,1,1,1
0.185490000,0,1,1,1,1
0.185790250,0,0,1,1,1
0.186392375,0,1,1,1,1
0.186692625,0,0,1,1,1
0.186866000,1,1,1,1,1
0.186866125,0,0,1,1,1
0.187294250,0,1,1,1,1
0.187595125,0,0,1,1,1
0.187738750,1,1,1,1,1
0.187739000,0,0,1,1,1
0.188196500,0,1,1,1,1
0.188497500,0,0,1,1,1
0.189099000,0,1,1,1,1
0.189399875,0,0,1,1,1
0.189738625,1,1,1,1,1
0.189738875,0,0,1,1,1
0.190000375,0,1,1,1,1
0.190301625,0,0,1,1,1
0.190602750,1,1,1,1,1
0.190918750,0,1,0,1,1
0.191204125,1,1,1,1,1
0.191820000,0,1,0,1,1
0.192106500,0,0,0,1,1
0.192106875,0,1,0,1,1
0.192107000,1,1,1,1,1
0.192721250,0,1,0,1,1
0.193008000,0,0,0,1,1
0.193008375,1,1,1,1,1
0.193622500,0,1,0,1,1
0.193910750,1,1,1,1,1
0.194524000,0,1,0,1,1
0.194812875,1,1,1,1,1
0.195429625,0,1,0,1,1
0.195715375,1,1,1,1,1
0.196332000,0,1,0,1,1
0.196617750,0,0,0,1,1
0.196618125,1,1,1,1,1
0.197236500,0,1,0,1,1
0.197520250,0,0,0,1,1
0.197520500,1,1,1,1,1
0.197834500,1,0,0,1,1
0.200862375,1,1,1,1,1
0.200862625,1,0,0,1,1
0.203237000,1,1,1,1,1
0.203237250,1,0,0,1,1
0.205611750,1,1,1,1,1
0.205612000,1,0,0,1,1
0.205986750,1,1,1,1,1
0.205987000,1,0,0,1,1
0.210986125,1,1,0,1,1
0.210986375,1,0,0,1,1
0.219485250,1,1,0,1,1
0.219485500,1,0,0,1,1
0.223984750,1,1,0,1,1
0.223985000,1,0,0,1,1
0.224660750,1,1,1,1,1
0.224660875,1,0,0,1,1
0.224726500,1,1,1,1,1
0.224726750,1,0,0,1,1
0.227609250,1,1,0,1,1
0.227609500,1,0,0,1,1
0.240495000,1,1,1,1,1
0.240495250,1,0,0,1,1
0.253481375,1,1,0,1,1
0.253481625,1,0,0,1,1
0.261230500,1,1,1,1,1
0.261230750,1,0,0,1,1
0.261605500,1,1,1,1,1
0.261605750,1,0,0,1,1
0.267335500,1,0,1,1,1
0.267339125,1,1,1,1,1
0.267341625,1,0,1,1,1
0.267342875,1,0,0,1,1
0.269073125,1,1,1,1,1
0.269689500,0,1,0,1,1
0.269729500,1,1,1,1,1
0.269729750,0,1,0,1,1
0.269974875,1,1,1,1,1
0.270590875,0,1,0,1,1
0.270860875,1,1,0,1,1
0.270861000,0,1,0,1,1
0.270877375,0,0,0,1,1
0.270877750,1,1,1,1,1
0.271191625,0,0,1,1,1
0.271479625,0,1,1,1,1
0.271779875,0,0,1,1,1
0.272381875,0,1,1,1,1
0.272682125,0,0,1,1,1
0.273283625,0,1,1,1,1
0.273584500,0,0,1,1,1
0.274186000,0,1,1,1,1
0.274486875,0,0,1,1,1
0.275088500,0,1,1,1,1
0.275389375,0,0,1,1,1
0.275989875,0,1,1,1,1
0.276291125,0,0,1,1,1
0.276592250,1,1,1,1,1
0.276908625,0,1,0,1,1
0.277193625,1,1,1,1,1
0.277810000,0,1,0,1,1
0.278096125,1,1,1,1,1
0.278725250,0,1,0,1,1
0.278728500,1,1,1,1,1
0.278728750,0,1,0,1,1
0.279008500,1,1,1,1,1
0.279626500,0,1,0,1,1
0.279911375,1,1,1,1,1
0.280527750,0,1,0,1,1
0.280813750,1,1,1,1,1
0.281429000,0,1,0,1,1
0.281716125,0,0,0,1,1
0.281716500,1,1,1,1,1
0.282334875,0,1,0,1,1
0.282478125,1,1,1,1,1
0.282478375,0,1,0,1,1
0.282618625,0,0,0,1,1
0.282618750,1,1,1,1,1
0.283236125,0,1,0,1,1
0.283521125,1,1,1,1,1
0.283837000,1,0,0,1,1
0.287665000,1,1,0,1,1
0.287665250,1,0,0,1,1
0.302852875,1,1,0,1,1
0.302853000,1,0,0,1,1
0.314853500,1,1,1,1,1
0.314853750,1,0,0,1,1
0.319790875,1,1,1,1,1
0.319791000,1,0,0,1,1
0.319973875,1,1,0,1,1
0.319974125,1,0,0,1,1
0.320348875,1,1,0,1,1
0.320349125,1,0,0,1,1
0.322723625,1,1,1,1,1
0.322723875,1,0,0,1,1
0.330472750,1,1,0,1,1
0.330473000,1,0,0,1,1
0.330847625,1,1,1,1,1
0.330847875,1,0,0,1,1
0.330853500,1,1,0,1,1
0.330853625,1,0,0,1,1
0.335264125,1,1,0,1,1
0.335264250,1,0,0,1,1
0.338596750,1,1,1,1,1
0.338597000,1,0,0,1,1
0.343971125,1,1,0,1,1
0.343971375,1,0,0,1,1
0.346345875,1,1,0,1,1
0.346346125,1,0,0,1,1
0.346847875,1,1,1,1,1
0.346848125,1,0,0,1,1
0.351082500,1,1,0,1,1
0.351082750,1,0,0,1,1
0.352095250,1,1,1,1,1
0.352095500,1,0,0,1,1
0.353325125,1,0,1,1,1
0.353328875,1,1,1,1,1
0.353331375,1,0,1,1,1
0.353332625,1,0,0,1,1
0.355062625,1,1,1,1,1
0.355683250,0,1,0,1,1
0.355964500,0,0,0,1,1
0.355964625,1,1,1,1,1
0.356584375,0,1,0,1,1
0.356867000,0,0,0,1,1
0.356867375,1,1,1,1,1
0.357185125,0,0,1,1,1
0.357469250,0,1,1,1,1
0.357769500,0,0,1,1,1
0.358382750,0,1,1,1,1
0.358683000,0,0,1,1,1
0.359284875,0,1,1,1,1
0.359586000,0,0,1,1,1
0.359844375,0,1,1,1,1
0.359844625,0,0,1,1,1
0.360187375,0,1,1,1,1
0.360488250,0,0,1,1,1
0.361089875,0,1,1,1,1
0.361390750,0,0,1,1,1
0.361991250,0,1,1,1,1
0.362292500,0,0,1,1,1
0.362593625,1,1,1,1,1
0.362906875,0,1,0,1,1
0.363195125,0,0,0,1,1
0.363195375,1,1,1,1,1
0.363812750,0,1,0,1,1
0.364097625,1,1,1,1,1
0.364714000,0,1,0,1,1
0.364999125,1,1,1,1,1
0.365619875,0,1,0,1,1
0.365901500,0,0,0,1,1
0.365901875,1,1,1,1,1
0.366516500,0,1,0,1,1
0.366803875,0,0,0,1,1
0.366804250,1,1,1,1,1
0.367422125,0,1,0,1,1
0.367593500,1,1,1,1,1
0.367593750,0,1,0,1,1
0.367706250,1,1,1,1,1
0.368323125,0,1,0,1,1
0.368608625,1,1,1,1,1
0.369224375,0,1,0,1,1
0.369511125,0,0,0,1,1
0.369511500,1,1,1,1,1
0.369834500,1,0,0,1,1
0.373342875,1,1,0,1,1
0.373343125,1,0,0,1,1
0.375717625,1,1,1,1,1
0.375717875,1,0,0,1,1
0.378844250,1,1,1,1,1
0.378844500,1,0,0,1,1
0.378848000,1,1,1,1,1
0.378848250,1,0,0,1,1
0.381092000,1,1,0,1,1
0.381092250,1,0,0,1,1
0.381467000,1,1,1,1,1
0.381467250,1,0,0,1,1
0.383841625,1,1,1,1,1
0.383841875,1,0,0,1,1
0.386845375,1,1,1,1,1
0.386845500,1,0,0,1,1
0.391965750,1,1,0,1,1
0.391966000,1,0,0,1,1
0.394842500,1,1,0,1,1
0.394842750,1,0,0,1,1
0.395715375,1,1,0,1,1
0.395715625,1,0,0,1,1
0.403464500,1,1,0,1,1
0.403464750,1,0,0,1,1
0.405839250,1,1,0,1,1
0.405839500,1,0,0,1,1
0.418587750,1,1,1,1,1
0.418588000,1,0,0,1,1
0.418962750,1,1,0,1,1
0.418963000,1,0,0,1,1
0.427461750,1,1,0,1,1
0.427462000,1,0,0,1,1
0.434840000,1,1,0,1,1
0.434840125,1,0,0,1,1
0.439314875,1,0,1,1,1
0.439318375,1,1,1,1,1
0.439320875,1,0,1,1,1
0.439322125,1,0,0,1,1
0.439335375,1,1,1,1,1
0.439335625,1,0,0,1,1
0.441052375,1,1,1,1,1
0.441669875,0,1,0,1,1
0.441954125,1,1,1,1,1
0.442571125,0,1,0,1,1
0.442856750,1,1,1,1,1
0.443171875,0,0,1,1,1
0.443458875,0,1,1,1,1
0.443759125,0,0,1,1,1
0.444361250,0,1,1,1,1
0.444661500,0,0,1,1,1
0.445262875,0,1,1,1,1
0.445563875,0,0,1,1,1
0.446165375,0,1,1,1,1
0.446466250,0,0,1,1,1
0.447067750,0,1,1,1,1
0.447368750,0,0,1,1,1
0.447459500,1,1,1,1,1
0.447459750,0,0,1,1,1
0.447969250,0,1,1,1,1
0.448270500,0,0,1,1,1
0.448571500,0,0,0,1,1
0.448571625,1,1,1,1,1
0.448888375,0,1,0,1,1
0.449173000,1,1,1,1,1
0.449789500,0,1,0,1,1
0.450075375,1,1,1,1,1
0.450690625,0,1,0,1,1
0.450976875,1,1,1,1,1
0.451591750,0,1,0,1,1
0.451879500,1,1,1,1,1
0.452493000,0,1,0,1,1
0.452781750,1,1,1,1,1
0.453398750,0,1,0,1,1
0.453684125,1,1,1,1,1
0.454299875,0,1,0,1,1
0.454586500,0,0,0,1,1
0.454586750,1,1,1,1,1
0.455201750,0,1,0,1,1
0.455208625,1,1,1,1,1
0.455208875,0,1,0,1,1
0.455489000,0,0,0,1,1
0.455489250,1,1,1,1,1
0.455806375,1,0,0,1,1
0.462834875,1,1,0,1,1
0.462835000,1,0,0,1,1
0.468832125,1,1,0,1,1
0.468832375,1,0,0,1,1
0.471581750,1,1,0,1,1
0.471582000,1,0,0,1,1
0.478837000,1,1,1,1,1
0.478837125,1,0,0,1,1
0.479705875,1,1,0,1,1
0.479706125,1,0,0,1,1
0.480080875,1,1,0,1,1
0.480081125,1,0,0,1,1
0.488688125,1,1,1,1,1
0.488688625,1,0,0,1,1
0.494329250,1,1,0,1,1
0.494329500,1,0,0,1,1
0.498078750,1,1,1,1,1
0.498079000,1,0,0,1,1
0.503203250,1,1,1,1,1
0.503203500,1,0,0,1,1
0.506202875,1,1,1,1,1
0.506203125,1,0,0,1,1
0.510829375,1,1,1,1,1
0.510829625,1,0,0,1,1
0.518830375,1,1,1,1,1
0.518830625,1,0,0,1,1
0.525304375,1,0,1,1,1
0.525308000,1,1,1,1,1
0.525310500,1,0,1,1,1
0.525311750,1,0,0,1,1
0.526827625,1,1,0,1,1
0.526827875,1,0,0,1,1
0.527041875,1,1,1,1,1
0.527660375,0,1,0,1,1
0.527943625,0,0,0,1,1
0.527944000,1,1,1,1,1
0.528561500,0,1,0,1,1
0.528846125,1,1,1,1,1
0.529162125,0,0,1,1,1
0.529448375,0,1,1,1,1
0.529748625,0,0,1,1,1
0.530350750,0,1,1,1,1
0.530651000,0,0,1,1,1
0.531075125,0,1,1,1,1
0.531075375,0,0,1,1,1
0.531252500,0,1,1,1,1
0.531553500,0,0,1,1,1
0.532155000,0,1,1,1,1
0.532455875,0,0,1,1,1
0.533057375,0,1,1,1,1
0.533358375,0,0,1,1,1
0.533958875,0,1,1,1,1
0.534260125,0,0,1,1,1
0.534561250,1,1,1,1,1
0.534874000,0,1,0,1,1
0.535162750,1,1,1,1,1
0.535775250,0,1,1,1,1
0.535775375,0,1,0,1,1
0.535904375,1,1,1,1,1
0.535904625,0,1,0,1,1
0.536021750,1,1,1,1,1
0.536022000,0,1,0,1,1
0.536065125,1,1,1,1,1
0.536685750,0,1,0,1,1
0.536966625,1,1,1,1,1
0.537587000,0,1,0,1,1
0.537869000,0,0,0,1,1
0.537869375,1,1,1,1,1
0.538497500,0,1,0,1,1
0.538782375,1,1,1,1,1
0.539398750,0,1,0,1,1
0.539685125,0,0,0,1,1
0.539685500,1,1,1,1,1
0.540299875,0,1,0,1,1
0.540587500,0,0,0,1,1
0.540587875,1,1,1,1,1
0.541205625,0,1,0,1,1
0.541490000,1,1,1,1,1
0.541807750,1,0,0,1,1
0.542573750,1,1,0,1,1
0.542574000,1,0,0,1,1
0.542827750,1,1,1,1,1
0.542828000,1,0,0,1,1
0.550697875,1,1,1,1,1
0.550698125,1,0,0,1,1
0.556447250,1,1,0,1,1
0.556447500,1,0,0,1,1
0.558447000,1,1,0,1,1
0.558447250,1,0,0,1,1
0.558822000,1,1,1,1,1
0.558822250,1,0,0,1,1
0.566571125,1,1,0,1,1
0.566571375,1,0,0,1,1
0.566946000,1,1,1,1,1
0.566946250,1,0,0,1,1
0.573070375,1,1,1,1,1
0.573070625,1,0,0,1,1
0.574695125,1,1,0,1,1
0.574695375,1,0,0,1,1
0.580444500,1,1,1,1,1
0.580444750,1,0,0,1,1
0.582945125,1,1,1,1,1
0.582945250,1,0,0,1,1
0.588193625,1,1,0,1,1
0.588193875,1,0,0,1,1
0.590820375,1,1,1,1,1
0.590820625,1,0,0,1,1
0.598213000,1,1,0,1,1
0.598213250,1,0,0,1,1
0.606566500,1,1,0,1,1
0.606566750,1,0,0,1,1
0.611293875,1,0,1,1,1
0.611297500,1,1,1,1,1
0.611300000,1,0,1,1,1
0.611301250,1,0,0,1,1
0.613031500,1,1,1,1,1
0.613646750,0,1,0,1,1
0.613933375,0,0,0,1,1
0.613933750,1,1,1,1,1
0.614548500,0,1,0,1,1
0.614835750,0,0,0,1,1
0.614836125,1,1,1,1,1
0.615153375,0,0,1,1,1
0.615438000,0,1,1,1,1
0.615738250,0,0,1,1,1
0.616340250,0,1,1,1,1
0.616640500,0,0,1,1,1
0.617242000,0,1,1,1,1
0.617542875,0,0,1,1,1
0.618144375,0,1,1,1,1
0.618455875,0,0,1,1,1
0.619057750,0,1,1,1,1
0.619358875,0,0,1,1,1
0.619959375,0,1,1,1,1
0.620260500,0,0,1,1,1
0.620561625,0,0,0,1,1
0.620561875,1,1,1,1,1
0.620876250,0,1,0,1,1
0.621163125,1,1,1,1,1
0.621776250,0,1,0,1,1
0.622065500,1,1,1,1,1
0.622681625,0,1,0,1,1
0.622967000,1,1,1,1,1
0.623583250,0,1,0,1,1
0.623869375,0,0,0,1,1
0.623869750,1,1,0,1,1
0.623869875,1,1,1,1,1
0.624488625,0,1,0,1,1
0.624771875,0,0,0,1,1
0.624772125,1,1,1,1,1
0.625389750,0,1,1,1,1
0.625389875,0,1,0,1,1
0.625674250,1,1,1,1,1
0.626290875,0,1,0,1,1
0.626576750,1,1,1,1,1
0.627189500,0,1,0,1,1
0.627479125,0,0,0,1,1
0.627479500,1,1,1,1,1
0.627797500,1,0,0,1,1
0.630817875,1,1,0,1,1
0.630818000,1,0,0,1,1
0.638063000,1,1,1,1,1
0.638063250,1,0,0,1,1
0.638815000,1,1,1,1,1
0.638815125,1,0,0,1,1
0.640437750,1,1,1,1,1
0.640438000,1,0,0,1,1
0.646562000,1,1,1,1,1
0.646562250,1,0,0,1,1
0.648936750,1,1,0,1,1
0.648937000,1,0,0,1,1
0.654686125,1,1,0,1,1
0.654686375,1,0,0,1,1
0.654817000,1,1,1,1,1
0.654817125,1,0,0,1,1
0.655061125,1,1,0,1,1
0.655061375,1,0,0,1,1
0.664935000,1,1,0,1,1
0.664935250,1,0,0,1,1
0.670815625,1,1,0,1,1
0.670815750,1,0,0,1,1
0.678814250,1,1,0,1,1
0.678814500,1,0,0,1,1
0.682811875,1,1,0,1,1
0.682812125,1,0,0,1,1
0.691307500,1,1,1,1,1
0.691307625,1,0,0,1,1
0.695681500,1,1,0,1,1
0.695681750,1,0,0,1,1
0.697283500,1,0,1,1,1
0.697287125,1,1,1,1,1
0.697289625,1,0,1,1,1
0.697290875,1,0,0,1,1
0.699021500,1,1,1,1,1
0.699640500,1,1,0,1,1
0.699640625,0,1,0,1,1
0.699923375,0,0,0,1,1
0.699923625,1,1,1,1,1
0.700538250,0,1,1,1,1
0.700539000,0,1,0,1,1
0.700825750,1,1,1,1,1
0.701142625,0,0,1,1,1
0.701428000,0,1,1,1,1
0.701728250,0,0,1,1,1
0.702330375,0,1,1,1,1
0.702630625,0,0,1,1,1
0.702812000,1,1,1,1,1
0.702812125,0,0,1,1,1
0.703232250,0,1,1,1,1
0.703533125,0,0,1,1,1
0.704134625,0,1,1,1,1
0.704435500,0,0,1,1,1
0.705037000,0,1,1,1,1
0.705338000,0,0,1,1,1
0.705938500,0,1,1,1,1
0.706239750,0,0,1,1,1
0.706540875,0,0,0,1,1
0.706541125,1,1,1,1,1
0.706859875,0,1,0,1,1
0.707142250,0,0,0,1,1
0.707142625,1,1,1,1,1
0.707761125,0,1,0,1,1
0.708044750,0,0,0,1,1
0.708045000,1,1,0,1,1
0.708045125,1,1,1,1,1
0.708658625,0,1,1,1,1
0.708659500,0,1,0,1,1
0.708946125,0,0,0,1,1
0.708946375,1,1,0,1,1
0.708946500,1,1,1,1,1
0.709563750,0,1,0,1,1
0.709848500,1,1,1,1,1
0.710465000,0,1,0,1,1
0.710751000,1,1,1,1,1
0.711370875,0,1,0,1,1
0.711653375,0,0,0,1,1
0.711653750,1,1,1,1,1
0.712267500,0,1,0,1,1
0.712556000,1,1,1,1,1
0.713173250,0,1,0,1,1
0.713458375,1,1,1,1,1
0.713774750,1,1,0,1,1
0.713775250,1,0,0,1,1
0.721178625,1,1,0,1,1
0.721178875,1,0,0,1,1
0.721553625,1,1,0,1,1
0.721553875,1,0,0,1,1
0.721581250,1,1,1,1,1
0.721581500,1,0,0,1,1
0.721581625,1,1,0,1,1
0.721582125,1,0,0,1,1
0.737051875,1,1,1,1,1
0.737052125,1,0,0,1,1
0.742426250,1,1,0,1,1
0.742426500,1,0,0,1,1
0.743176125,1,1,1,1,1
0.743176375,1,0,0,1,1
0.744801000,1,1,1,1,1
0.744801250,1,0,0,1,1
0.752175125,1,1,0,1,1
0.752175375,1,0,0,1,1
0.760299250,1,1,0,1,1
0.760299500,1,0,0,1,1
0.765673625,1,1,1,1,1
0.765673875,1,0,0,1,1
0.770803750,1,1,0,1,1
0.770804000,1,0,0,1,1
0.771423000,1,1,1,1,1
0.771423250,1,0,0,1,1
0.775797500,1,1,0,1,1
0.775797750,1,0,0,1,1
0.779172125,1,1,1,1,1
0.779172375,1,0,0,1,1
0.781546875,1,1,1,1,1
0.781547125,1,0,0,1,1
0.783273125,1,0,1,1,1
0.783276750,1,1,1,1,1
0.783279250,1,0,1,1,1
0.783280500,1,0,0,1,1
0.783921500,1,1,0,1,1
0.783921750,1,0,0,1,1
0.784850875,1,1,0,1,1
0.784851125,1,0,0,1,1
0.785010625,1,1,1,1,1
0.785632125,0,1,0,1,1
0.785912375,1,1,1,1,1
0.786533500,0,1,0,1,1
0.786815000,1,1,1,1,1
0.787129625,0,0,1,1,1
0.787296125,1,1,1,1,1
0.787296375,0,0,1,1,1
0.787417125,0,1,1,1,1
0.787717375,0,0,1,1,1
0.788319500,0,1,1,1,1
0.788619875,0,0,1,1,1
0.789221250,0,1,1,1,1
0.789522125,0,0,1,1,1
0.790123625,0,1,1,1,1
0.790424625,0,0,1,1,1
0.791026125,0,1,1,1,1
0.791327125,0,0,1,1,1
0.791927625,0,1,1,1,1
0.792228875,0,0,1,1,1
0.792530000,1,1,1,1,1
0.792846375,0,1,0,1,1
0.793131500,1,1,1,1,1
0.793747750,0,1,0,1,1
0.794033875,1,1,1,1,1
0.794653750,0,1,0,1,1
0.794935375,0,0,0,1,1
0.794935750,1,1,1,1,1
0.795554750,0,1,1,1,1
0.795554875,0,1,0,1,1
0.795837750,0,0,0,1,1
0.795838125,1,1,1,1,1
0.796458125,0,1,0,1,1
0.796740375,1,1,1,1,1
0.797357375,0,1,0,1,1
0.797642750,1,1,1,1,1
0.798258500,0,1,0,1,1
0.798556250,0,0,0,1,1
0.798556500,1,1,1,1,1
0.799170125,0,1,0,1,1
0.799459250,1,1,1,1,1
0.799780000,1,0,0,1,1
0.800744625,1,1,1,1,1
0.800744750,1,0,0,1,1
0.800795500,1,1,1,1,1
0.800795625,1,0,0,1,1
0.802800250,1,1,0,1,1
0.802800500,1,0,0,1,1
0.810797500,1,1,1,1,1
0.810797625,1,0,0,1,1
0.818794750,1,1,1,1,1
0.818794875,1,0,0,1,1
0.824417000,1,1,0,1,1
0.824417250,1,0,0,1,1
0.826416750,1,1,0,1,1
0.826417000,1,0,0,1,1
0.826791750,1,1,0,1,1
0.826792000,1,0,0,1,1
0.831583750,1,1,0,1,1
0.831583875,1,0,0,1,1
0.832541125,1,1,1,1,1
0.832541375,1,0,0,1,1
0.838290375,1,1,0,1,1
0.838290500,1,0,0,1,1
0.840290250,1,1,1,1,1
0.840290500,1,0,0,1,1
0.841040125,1,1,1,1,1
0.841040375,1,0,0,1,1
0.842664875,1,1,0,1,1
0.842665125,1,0,0,1,1
0.842792000,1,1,0,1,1
0.842792125,1,0,0,1,1
0.853288750,1,1,0,1,1
0.853289000,1,0,0,1,1
0.854790625,1,1,0,1,1
0.854790875,1,0,0,1,1
0.855663500,1,1,1,1,1
0.855663750,1,0,0,1,1
0.858793875,1,1,1,1,1
0.858794125,1,0,0,1,1
0.861037875,1,1,0,1,1
0.861038125,1,0,0,1,1
0.866791250,1,1,1,1,1
0.866791375,1,0,0,1,1
0.869262875,1,0,1,1,1
0.869266500,1,1,1,1,1
0.869269000,1,0,1,1,1
0.869270125,1,0,0,1,1
0.871000250,1,1,1,1,1
0.871618125,0,1,0,1,1
0.871902000,1,1,1,1,1
0.872519375,0,1,0,1,1
0.872804500,1,1,1,1,1
0.873124875,0,0,1,1,1
0.873406750,0,1,1,1,1
0.873707000,0,0,1,1,1
0.874309125,0,1,1,1,1
0.874609375,0,0,1,1,1
0.875210875,0,1,1,1,1
0.875511750,0,0,1,1,1
0.876113250,0,1,1,1,1
0.876414125,0,0,1,1,1
0.877015625,0,1,1,1,1
0.877316500,0,0,1,1,1
0.877917000,0,1,1,1,1
0.878218250,0,0,1,1,1
0.878530250,1,1,1,1,1
0.878846500,0,1,0,1,1
0.879132125,1,1,1,1,1
0.879747750,0,1,0,1,1
0.880034625,1,1,1,1,1
0.880650375,0,1,0,1,1
0.880936000,1,1,0,1,1
0.880936250,1,1,1,1,1
0.881554625,0,1,0,1,1
0.881838375,0,0,0,1,1
0.881838625,1,1,1,1,1
0.882455750,0,1,0,1,1
0.882660375,1,1,0,1,1
0.882660625,0,1,0,1,1
0.882740750,1,1,1,1,1
0.883356875,0,1,0,1,1
0.883643250,1,1,1,1,1
0.884262750,0,1,0,1,1
0.884545625,0,0,0,1,1
0.884545875,1,1,1,1,1
0.885160375,0,1,0,1,1
0.885448000,1,1,0,1,1
0.885448125,1,1,1,1,1
0.885760125,1,1,0,1,1
0.885761500,1,0,0,1,1
0.890788500,1,1,1,1,1
0.890788625,1,0,0,1,1
0.890790250,1,1,1,1,1
0.890790500,1,0,0,1,1
0.894492000,1,1,0,1,1
0.894492125,1,0,0,1,1
0.896283875,1,1,1,1,1
0.896284125,1,0,0,1,1
0.898658625,1,1,1,1,1
0.898658875,1,0,0,1,1
0.898785625,1,1,0,1,1
0.898785875,1,0,0,1,1
0.904033000,1,1,0,1,1
0.904033250,1,0,0,1,1
0.906782750,1,1,0,1,1
0.906783000,1,0,0,1,1
0.906786750,1,1,1,1,1
0.906786875,1,0,0,1,1
0.909157375,1,1,0,1,1
0.909157625,1,0,0,1,1
0.909532375,1,1,0,1,1
0.909532625,1,0,0,1,1
0.909683375,1,1,1,1,1
0.909683625,1,0,0,1,1
0.922785500,1,1,1,1,1
0.922785750,1,0,0,1,1
0.930782750,1,1,1,1,1
