name,type,start_time,duration
"ICM42688 SPI","error",0.0420045,0.000030875
"ICM42688 SPI","error",0.042096375,0.000031125
"ICM42688 SPI","error",0.042201875,0.00000175
"ICM42688 SPI","error",0.042234625,0.000030875
"ICM42688 SPI","error",0.042293375,0.000002625
"ICM42688 SPI","enable",0.042324875,0.000000125
"ICM42688 SPI","disable",0.042357375,0.000000125
"ICM42688 SPI","error",0.042385875,0.000002125
"ICM42688 SPI","enable",0.042418375,0.000000125
"ICM42688 SPI","disable",0.04244925,0.000000125
"ICM42688 SPI","error",0.042478875,0.000001
"ICM42688 SPI","error",0.042508,0.000079375
"ICM42688 SPI","error",0.04261475,0.00000275
"ICM42688 SPI","enable",0.042647625,0.000000125
"ICM42688 SPI","disable",0.042678625,0.000000125
"ICM42688 SPI","error",0.04270425,0.000005125
"ICM42688 SPI","enable",0.04282725,0.000000125
"ICM42688 SPI","disable",0.043001125,0.000000125
"ICM42688 SPI","error",0.043075375,0.00000225
"ICM42688 SPI","enable",0.0431075,0.000000125
"ICM42688 SPI","disable",0.043184875,0.000000125
"ICM42688 SPI","error",0.043352125,0.00000175
"ICM42688 SPI","error",0.043384375,0.000077
"ICM42688 SPI","error",0.095998,0.000031125
"ICM42688 SPI","enable",0.096088625,0.000000125
"ICM42688 SPI","disable",0.0961205,0.000000125
"ICM42688 SPI","error",0.0961495,0.000001625
"ICM42688 SPI","error",0.0961965,0.0000005
"ICM42688 SPI","enable",0.096224625,0.000000125
"ICM42688 SPI","disable",0.096258875,0.000000125
"ICM42688 SPI","error",0.096287375,0.000002125
"ICM42688 SPI","enable",0.0963185,0.000000125
"ICM42688 SPI","disable",0.096350875,0.000000125
"ICM42688 SPI","error",0.0963795,0.000002
"ICM42688 SPI","error",0.096412,0.000030875
"ICM42688 SPI","error",0.096503875,0.000076625
"ICM42688 SPI","error",0.0966095,0.0000015
"ICM42688 SPI","error",0.0966415,0.00003075
"ICM42688 SPI","error",0.0967925,0.00000225
"ICM42688 SPI","error",0.09682525,0.00016975
"ICM42688 SPI","error",0.0970225,0.000002625
"ICM42688 SPI","error",0.09706975,0.00000125
"ICM42688 SPI","error",0.09710175,0.000077
"ICM42688 SPI","error",0.097299375,0.000002
"ICM42688 SPI","error",0.09734625,0.000001
"ICM42688 SPI","error",0.09737775,0.000077
"ICM42688 SPI","error",0.1499915,0.000031125
"ICM42688 SPI","enable",0.15008225,0.000000125
"ICM42688 SPI","disable",0.150114,0.000000125
"ICM42688 SPI","error",0.15014325,0.000001375
"ICM42688 SPI","error",0.15019025,0.00000025
"ICM42688 SPI","error",0.150218375,0.000034
"ICM42688 SPI","error",0.15028125,0.000001625
"ICM42688 SPI","error",0.150313375,0.000031
"ICM42688 SPI","error",0.150405375,0.000030875
"ICM42688 SPI","error",0.15049725,0.000076625
"ICM42688 SPI","error",0.150603125,0.00000125
"ICM42688 SPI","enable",0.1506315,0.000000125
"ICM42688 SPI","disable",0.150665875,0.000000125
"ICM42688 SPI","error",0.15078625,0.000001875
"ICM42688 SPI","enable",0.150814625,0.000000125
"ICM42688 SPI","disable",0.150988,0.000000125
"ICM42688 SPI","error",0.151063125,0.000001375
"ICM42688 SPI","error",0.151095125,0.00007675
"ICM42688 SPI","error",0.151246125,0.00000275
"ICM42688 SPI","error",0.151293125,0.000001625
"ICM42688 SPI","error",0.151371125,0.00007675
"ICM42688 SPI","error",0.203985,0.00003075
"ICM42688 SPI","error",0.204046,0.00000025
"ICM42688 SPI","error",0.20407675,0.000031125
"ICM42688 SPI","error",0.204182125,0.000001875
"ICM42688 SPI","enable",0.204215,0.000000125
"ICM42688 SPI","disable",0.20424575,0.000000125
"ICM42688 SPI","error",0.204275125,0.00000125
"ICM42688 SPI","error",0.204306875,0.000031
"ICM42688 SPI","error",0.204367,0.000001375
"ICM42688 SPI","error",0.204398875,0.00003075
"ICM42688 SPI","error",0.204459125,0.000001125
"ICM42688 SPI","enable",0.20448925,0.000000125
"ICM42688 SPI","disable",0.2045675,0.000000125
"ICM42688 SPI","error",0.204595625,0.00000225
"ICM42688 SPI","enable",0.204628,0.000000125
"ICM42688 SPI","disable",0.204659,0.000000125
"ICM42688 SPI","error",0.204684625,0.000005375
"ICM42688 SPI","error",0.204775125,0.0000065
"ICM42688 SPI","enable",0.204811,0.000000125
"ICM42688 SPI","disable",0.204981375,0.000000125
"ICM42688 SPI","enable",0.205084125,0.000000125
"ICM42688 SPI","disable",0.205165125,0.000000125
"ICM42688 SPI","error",0.205331875,0.00000225
"ICM42688 SPI","error",0.205364625,0.00007675
"ICM42688 SPI","error",0.257978375,0.00003075
"ICM42688 SPI","error",0.2580395,0.00000025
"ICM42688 SPI","error",0.25807025,0.000031125
"ICM42688 SPI","error",0.25812875,0.00000275
"ICM42688 SPI","error",0.25817575,0.00000175
"ICM42688 SPI","enable",0.258204,0.000000125
"ICM42688 SPI","disable",0.25823925,0.000000125
"ICM42688 SPI","error",0.258269,0.000000875
"ICM42688 SPI","error",0.258299,0.000032625
"ICM42688 SPI","error",0.2583915,0.000031625
"ICM42688 SPI","error",0.25845275,0.000001
"ICM42688 SPI","error",0.25848425,0.000076875
"ICM42688 SPI","error",0.25858875,0.000002625
"ICM42688 SPI","enable",0.2586215,0.000000125
"ICM42688 SPI","disable",0.2586525,0.000000125
"ICM42688 SPI","error",0.258682625,0.0000005
"ICM42688 SPI","error",0.258769,0.000006125
"ICM42688 SPI","error",0.258804625,0.000170375
"ICM42688 SPI","enable",0.2590815,0.000000125
"ICM42688 SPI","disable",0.259158875,0.000000125
"ICM42688 SPI","error",0.259278625,0.000003125
"ICM42688 SPI","error",0.259325625,0.000002
"ICM42688 SPI","error",0.259358125,0.000076625
"ICM42688 SPI","error",0.31197125,0.00003175
"ICM42688 SPI","error",0.312030125,0.000003125
"ICM42688 SPI","enable",0.312063,0.000000125
"ICM42688 SPI","disable",0.312094375,0.000000125
"ICM42688 SPI","error",0.312124,0.000001
"ICM42688 SPI","enable",0.31219925,0.000000125
"ICM42688 SPI","disable",0.31223275,0.000000125
"ICM42688 SPI","error",0.312263,0.000000375
"ICM42688 SPI","error",0.3122935,0.00003125
"ICM42688 SPI","error",0.312385875,0.00003075
"ICM42688 SPI","error",0.312444625,0.0000025
"ICM42688 SPI","enable",0.312476,0.000000125
"ICM42688 SPI","disable",0.312554125,0.000000125
"ICM42688 SPI","error",0.312583875,0.000001
"ICM42688 SPI","error",0.312612375,0.000034
"ICM42688 SPI","error",0.312673125,0.0000035
"ICM42688 SPI","error",0.312720125,0.0000025
"ICM42688 SPI","error",0.312762875,0.00000575
"ICM42688 SPI","enable",0.312795125,0.000000125
"ICM42688 SPI","disable",0.312968375,0.000000125
"ICM42688 SPI","error",0.31304375,0.000001125
"ICM42688 SPI","error",0.3130755,0.000077
"ICM42688 SPI","error",0.313227375,0.000001875
"ICM42688 SPI","error",0.313273875,0.00000125
"ICM42688 SPI","error",0.313348875,0.000079375
"ICM42688 SPI","enable",0.365965,0.000000125
"ICM42688 SPI","disable",0.365996,0.000000125
"ICM42688 SPI","error",0.366021875,0.000005
"ICM42688 SPI","enable",0.366052875,0.000000125
"ICM42688 SPI","disable",0.366053,0.000000125
"ICM42688 SPI","error",0.36605425,0.000034
"ICM42688 SPI","error",0.366118,0.00000025
"ICM42688 SPI","error",0.366162125,0.00000225
"ICM42688 SPI","enable",0.366195,0.000000125
"ICM42688 SPI","disable",0.366226125,0.000000125
"ICM42688 SPI","error",0.366256,0.00000075
"ICM42688 SPI","error",0.36628725,0.00003125
"ICM42688 SPI","error",0.36637925,0.000030875
"ICM42688 SPI","error",0.366471125,0.000076875
"ICM42688 SPI","error",0.366575125,0.000003125
"ICM42688 SPI","error",0.366607875,0.000031625
"ICM42688 SPI","error",0.366669,0.000001125
"ICM42688 SPI","error",0.366715875,0.00000025
"ICM42688 SPI","error",0.366758375,0.000003625
"ICM42688 SPI","enable",0.366791,0.000000125
"ICM42688 SPI","disable",0.36696175,0.000000125
"ICM42688 SPI","error",0.36703575,0.0000025
"ICM42688 SPI","enable",0.36706525,0.000000125
"ICM42688 SPI","disable",0.3671455,0.000000125
"ICM42688 SPI","error",0.367175875,0.00000025
"ICM42688 SPI","error",0.36723225,0.000001375
"ICM42688 SPI","error",0.367279125,0.0000005
"ICM42688 SPI","error",0.367322625,0.000002875
"ICM42688 SPI","enable",0.36735425,0.000000125
"ICM42688 SPI","disable",0.367432625,0.000000125
"ICM42688 SPI","enable",0.41995675,0.000000125
"ICM42688 SPI","disable",0.419989875,0.000000125
"ICM42688 SPI","error",0.420018375,0.00000175
"ICM42688 SPI","error",0.42005025,0.00003125
"ICM42688 SPI","error",0.42011125,0.00000075
"ICM42688 SPI","enable",0.420186375,0.000000125
"ICM42688 SPI","disable",0.42022,0.000000125
"ICM42688 SPI","error",0.42024775,0.0000025
"ICM42688 SPI","enable",0.42028025,0.000000125
"ICM42688 SPI","disable",0.420311625,0.000000125
"ICM42688 SPI","error",0.420341375,0.000000875
"ICM42688 SPI","error",0.42036975,0.000033875
"ICM42688 SPI","error",0.420464625,0.000076625
"ICM42688 SPI","error",0.420571125,0.000000625
"ICM42688 SPI","error",0.42060225,0.000031125
"ICM42688 SPI","error",0.42075075,0.00000475
"ICM42688 SPI","error",0.420786,0.0001695
"ICM42688 SPI","error",0.420984125,0.000001875
"ICM42688 SPI","error",0.421059375,0.000080125
"ICM42688 SPI","error",0.42116725,0.0000025
"ICM42688 SPI","error",0.421261,0.00000125
"ICM42688 SPI","enable",0.421336375,0.000000125
"ICM42688 SPI","disable",0.421415125,0.000000125
"ICM42688 SPI","error",0.47395225,0.00003075
"ICM42688 SPI","error",0.474013125,0.0000005
"ICM42688 SPI","enable",0.474041375,0.000000125
"ICM42688 SPI","disable",0.47407475,0.000000125
"ICM42688 SPI","error",0.474102375,0.000003
"ICM42688 SPI","error",0.474150625,0.000000625
"ICM42688 SPI","enable",0.474182125,0.000000125
"ICM42688 SPI","disable",0.474213,0.000000125
"ICM42688 SPI","error",0.474243125,0.000000625
"ICM42688 SPI","error",0.47427425,0.000031
"ICM42688 SPI","error",0.474365125,0.000031875
"ICM42688 SPI","error",0.474426125,0.000001375
"ICM42688 SPI","error",0.474458,0.000077
"ICM42688 SPI","error",0.47456225,0.000003
"ICM42688 SPI","enable",0.474595125,0.000000125
"ICM42688 SPI","disable",0.474626375,0.000000125
"ICM42688 SPI","error",0.47465325,0.000000875
"ICM42688 SPI","error",0.47465425,0.00000025
"ICM42688 SPI","error",0.474654625,0.000002375
"ICM42688 SPI","error",0.47469875,0.00000425
"ICM42688 SPI","error",0.474744625,0.00000425
"ICM42688 SPI","enable",0.474777875,0.000000125
"ICM42688 SPI","disable",0.474778125,0.000000125
"ICM42688 SPI","enable",0.47477825,0.000000125
"ICM42688 SPI","disable",0.4747995,0.000000125
"ICM42688 SPI","enable",0.47479975,0.000000125
"ICM42688 SPI","disable",0.474949,0.000000125
"ICM42688 SPI","error",0.475023,0.00000225
"ICM42688 SPI","enable",0.475055,0.000000125
"ICM42688 SPI","disable",0.4751325,0.000000125
"ICM42688 SPI","error",0.475331875,0.000077
"ICM42688 SPI","enable",0.527944125,0.000000125
"ICM42688 SPI","disable",0.52797675,0.000000125
"ICM42688 SPI","error",0.528005125,0.00000225
"ICM42688 SPI","error",0.528037875,0.00003075
"ICM42688 SPI","error",0.528141375,0.000003625
"ICM42688 SPI","error",0.528174,0.0000335
"ICM42688 SPI","enable",0.528267875,0.000000125
"ICM42688 SPI","disable",0.528299,0.000000125
"ICM42688 SPI","error",0.528328875,0.00000075
"ICM42688 SPI","error",0.528360125,0.000030875
"ICM42688 SPI","enable",0.528451,0.000000125
"ICM42688 SPI","disable",0.5285285,0.000000125
"ICM42688 SPI","error",0.528587125,0.000033375
"ICM42688 SPI","error",0.5287385,0.000004375
"ICM42688 SPI","error",0.528773375,0.000169375
"ICM42688 SPI","error",0.528971875,0.0000015
"ICM42688 SPI","error",0.52901875,0.0000005
"ICM42688 SPI","enable",0.529047,0.000000125
"ICM42688 SPI","disable",0.529126375,0.000000125
"ICM42688 SPI","error",0.529155375,0.00000175
"ICM42688 SPI","error",0.529201875,0.00000175
"ICM42688 SPI","error",0.529249,0.0000005
"ICM42688 SPI","enable",0.529324625,0.000000125
"ICM42688 SPI","disable",0.5294025,0.000000125
"ICM42688 SPI","error",0.581938375,0.000031875
"ICM42688 SPI","enable",0.582030125,0.000000125
"ICM42688 SPI","disable",0.582061625,0.000000125
"ICM42688 SPI","error",0.582091125,0.000001125
"ICM42688 SPI","enable",0.58216625,0.000000125
"ICM42688 SPI","disable",0.58220025,0.000000125
"ICM42688 SPI","enable",0.582260125,0.000000125
"ICM42688 SPI","disable",0.582292,0.000000125
"ICM42688 SPI","error",0.582353125,0.00003075
"ICM42688 SPI","error",0.582444875,0.000076625
"ICM42688 SPI","error",0.582551125,0.000001
"ICM42688 SPI","error",0.582581,0.000032625
"ICM42688 SPI","error",0.582732375,0.0000035
"ICM42688 SPI","error",0.582766375,0.000169375
"ICM42688 SPI","error",0.582964125,0.00000225
"ICM42688 SPI","enable",0.583040375,0.000000125
"ICM42688 SPI","disable",0.58311975,0.000000125
"ICM42688 SPI","error",0.58314725,0.00000275
"ICM42688 SPI","error",0.583194125,0.0000025
"ICM42688 SPI","error",0.583241,0.0000015
"ICM42688 SPI","error",0.583287875,0.0000005
"ICM42688 SPI","error",0.58331675,0.00007875
"ICM42688 SPI","error",0.635932625,0.000030875
"ICM42688 SPI","error",0.635989375,0.000004625
"ICM42688 SPI","error",0.636022125,0.000033375
"ICM42688 SPI","error",0.63608325,0.0000025
"ICM42688 SPI","error",0.63615975,0.000033875
"ICM42688 SPI","error",0.636254625,0.00003125
"ICM42688 SPI","error",0.63631475,0.000001375
"ICM42688 SPI","enable",0.636346125,0.000000125
"ICM42688 SPI","disable",0.63637725,0.000000125
"ICM42688 SPI","error",0.63640725,0.000000625
"ICM42688 SPI","error",0.636437375,0.000078
"ICM42688 SPI","error",0.636544125,0.0000015
"ICM42688 SPI","enable",0.636576,0.000000125
"ICM42688 SPI","disable",0.63660675,0.000000125
"ICM42688 SPI","error",0.636634,0.000003375
"ICM42688 SPI","error",0.636726375,0.000003
"ICM42688 SPI","enable",0.636758875,0.000000125
"ICM42688 SPI","disable",0.6369295,0.000000125
"ICM42688 SPI","error",0.637003125,0.000002625
"ICM42688 SPI","error",0.63703575,0.00007725
"ICM42688 SPI","error",0.637312375,0.00007675
"ICM42688 SPI","enable",0.689925875,0.000000125
"ICM42688 SPI","disable",0.68995675,0.000000125
"ICM42688 SPI","error",0.689987,0.000000375
"ICM42688 SPI","error",0.690017875,0.000031125
"ICM42688 SPI","error",0.690123125,0.000002
"ICM42688 SPI","error",0.690155875,0.000031125
"ICM42688 SPI","error",0.690217,0.0000005
"ICM42688 SPI","error",0.690245875,0.000033125
"ICM42688 SPI","enable",0.69033975,0.000000125
"ICM42688 SPI","disable",0.69037075,0.000000125
"ICM42688 SPI","enable",0.69042925,0.000000125
"ICM42688 SPI","disable",0.69050875,0.000000125
"ICM42688 SPI","error",0.690536125,0.000002875
"ICM42688 SPI","enable",0.690569,0.000000125
"ICM42688 SPI","disable",0.690600125,0.000000125
"ICM42688 SPI","error",0.69063,0.000000875
"ICM42688 SPI","error",0.69072025,0.0000025
"ICM42688 SPI","enable",0.690752,0.000000125
"ICM42688 SPI","disable",0.690922625,0.000000125
"ICM42688 SPI","error",0.690950125,0.000003125
"ICM42688 SPI","error",0.690997375,0.00000175
"ICM42688 SPI","enable",0.691028875,0.000000125
"ICM42688 SPI","disable",0.69110625,0.000000125
"ICM42688 SPI","error",0.69127375,0.0000015
"ICM42688 SPI","error",0.69130575,0.00007675
"ICM42688 SPI","error",0.743919625,0.00003075
"ICM42688 SPI","error",0.744011375,0.000030875
"ICM42688 SPI","error",0.744072375,0.000000375
"ICM42688 SPI","enable",0.7441475,0.000000125
"ICM42688 SPI","disable",0.74418075,0.000000125
"ICM42688 SPI","error",0.7442085,0.0000025
"ICM42688 SPI","enable",0.744241375,0.000000125
"ICM42688 SPI","disable",0.744272375,0.000000125
"ICM42688 SPI","error",0.744330625,0.00003375
"ICM42688 SPI","error",0.744391625,0.00000325
"ICM42688 SPI","error",0.744425375,0.000076625
"ICM42688 SPI","error",0.7445295,0.000003125
"ICM42688 SPI","error",0.744563,0.000031125
"ICM42688 SPI","error",0.744622125,0.00000225
"ICM42688 SPI","error",0.744668875,0.0000015
"ICM42688 SPI","error",0.744714125,0.000002125
"ICM42688 SPI","error",0.74474675,0.000169375
"ICM42688 SPI","error",0.744945375,0.000001375
"ICM42688 SPI","enable",0.745022125,0.000000125
"ICM42688 SPI","disable",0.74509975,0.000000125
"ICM42688 SPI","error",0.745128375,0.000002
"ICM42688 SPI","error",0.74517525,0.00000175
"ICM42688 SPI","error",0.745222125,0.00000075
"ICM42688 SPI","enable",0.74529725,0.000000125
"ICM42688 SPI","disable",0.74537575,0.000000125
"ICM42688 SPI","enable",0.797911125,0.000000125
"ICM42688 SPI","disable",0.79794375,0.000000125
"ICM42688 SPI","error",0.797972125,0.000002375
"ICM42688 SPI","error",0.798004875,0.000030875
"ICM42688 SPI","error",0.798066,0.00000025
"ICM42688 SPI","enable",0.798141125,0.000000125
"ICM42688 SPI","disable",0.798173875,0.000000125
"ICM42688 SPI","error",0.798202375,0.000002125
"ICM42688 SPI","error",0.798235,0.000031
"ICM42688 SPI","error",0.798296,0.0000005
"ICM42688 SPI","error",0.798327,0.000031125
"ICM42688 SPI","enable",0.798418,0.000000125
"ICM42688 SPI","disable",0.798495375,0.000000125
"ICM42688 SPI","error",0.798554,0.000033625
"ICM42688 SPI","error",0.798615125,0.00000275
"ICM42688 SPI","error",0.798662,0.000001875
"ICM42688 SPI","error",0.798708,0.00000175
"ICM42688 SPI","error",0.798737125,0.000172625
"ICM42688 SPI","error",0.798985875,0.00000025
"ICM42688 SPI","error",0.79901675,0.000076625
"ICM42688 SPI","error",0.799122,0.000002
"ICM42688 SPI","error",0.799169375,0.000001125
"ICM42688 SPI","error",0.799215875,0.0000005
"ICM42688 SPI","enable",0.799291,0.000000125
"ICM42688 SPI","disable",0.799369375,0.000000125
"ICM42688 SPI","enable",0.851904625,0.000000125
"ICM42688 SPI","disable",0.851937125,0.000000125
"ICM42688 SPI","error",0.851965625,0.000002125
"ICM42688 SPI","error",0.85199825,0.00003075
"ICM42688 SPI","enable",0.85213475,0.000000125
"ICM42688 SPI","disable",0.85216725,0.000000125
"ICM42688 SPI","error",0.852228375,0.000031
"ICM42688 SPI","error",0.8522895,0.000000375
"ICM42688 SPI","error",0.852320375,0.000031125
"ICM42688 SPI","enable",0.8524115,0.000000125
"ICM42688 SPI","disable",0.85248875,0.000000125
"ICM42688 SPI","enable",0.852547625,0.000000125
"ICM42688 SPI","disable",0.852580875,0.000000125
"ICM42688 SPI","error",0.852608625,0.000002625
"ICM42688 SPI","error",0.852701875,0.00000125
"ICM42688 SPI","error",0.85273075,0.000172375
"ICM42688 SPI","error",0.8529325,0.000001125
"ICM42688 SPI","enable",0.853007625,0.000000125
"ICM42688 SPI","disable",0.85308675,0.000000125
"ICM42688 SPI","error",0.8531155,0.000001875
"ICM42688 SPI","error",0.8531625,0.000001375
"ICM42688 SPI","error",0.853209375,0.000000375
"ICM42688 SPI","enable",0.8532845,0.000000125
"ICM42688 SPI","disable",0.85336275,0.000000125
"ICM42688 SPI","error",0.905899875,0.000030875
"ICM42688 SPI","error",0.90599175,0.00003075
"ICM42688 SPI","enable",0.906128625,0.000000125
"ICM42688 SPI","disable",0.90616075,0.000000125
"ICM42688 SPI","error",0.90618975,0.000001625
"ICM42688 SPI","enable",0.906218125,0.000000125
"ICM42688 SPI","disable",0.906253,0.000000125
"ICM42688 SPI","error",0.906312,0.000032625
"ICM42688 SPI","error",0.90637275,0.0000025
"ICM42688 SPI","error",0.906405625,0.000077
"ICM42688 SPI","error",0.906510875,0.000002
"ICM42688 SPI","error",0.90654175,0.000032375
"ICM42688 SPI","error",0.906603875,0.00000075
"ICM42688 SPI","error",0.90664975,0.000001
"ICM42688 SPI","error",0.906695875,0.00000075
"ICM42688 SPI","error",0.906727125,0.0001695
"ICM42688 SPI","error",0.906926875,0.00000025
"ICM42688 SPI","enable",0.90700175,0.000000125
"ICM42688 SPI","disable",0.907080125,0.000000125
"ICM42688 SPI","error",0.907109625,0.00000125
"ICM42688 SPI","error",0.907166,0.000002375
"ICM42688 SPI","error",0.907213,0.00000125
"ICM42688 SPI","error",0.907259875,0.00000025
"ICM42688 SPI","error",0.9072895,0.000078
"ICM42688 SPI","enable",0.959892125,0.000000125
"ICM42688 SPI","disable",0.959924125,0.000000125
"ICM42688 SPI","error",0.959953125,0.00000175
"ICM42688 SPI","error",0.95998525,0.000030875
"ICM42688 SPI","enable",0.960122125,0.000000125
"ICM42688 SPI","disable",0.96015425,0.000000125
"ICM42688 SPI","error",0.960183125,0.000001875
"ICM42688 SPI","error",0.9602155,0.000031
"ICM42688 SPI","enable",0.960305125,0.000000125
"ICM42688 SPI","disable",0.960338375,0.000000125
"ICM42688 SPI","enable",0.960399,0.000000125
"ICM42688 SPI","disable",0.960476125,0.000000125
"ICM42688 SPI","enable",0.960535125,0.000000125
"ICM42688 SPI","disable",0.960567625,0.000000125
"ICM42688 SPI","error",0.960596125,0.000002125
"ICM42688 SPI","error",0.960643125,0.000001125
"ICM42688 SPI","error",0.96068975,0.000000375
"ICM42688 SPI","enable",0.96071825,0.000000125
"ICM42688 SPI","disable",0.96089,0.000000125
"ICM42688 SPI","error",0.96092,0.000000625
