Time [s],Channel 0,Channel 1,Channel 2,Channel 3,Channel 4
0.000000000,1,1,1,1,1
0.000256000,1,0,0,1,1
0.020770625,1,1,0,1,1
0.020770875,1,0,0,1,1
0.023895250,1,1,0,1,1
0.023895500,1,0,0,1,1
0.024270250,1,1,0,1,1
0.024270500,1,0,0,1,1
0.033644125,1,1,1,1,1
0.033644375,1,0,0,1,1
0.048017500,1,1,0,1,1
0.048017750,1,0,0,1,1
0.053537375,1,1,1,1,1
0.055549000,1,0,0,1,1
0.057537750,1,1,1,1,1
0.057563750,0,1,1,1,1
0.057566625,0,0,1,1,1
0.057572625,0,1,1,1,1
0.057576000,0,0,1,1,1
0.057582125,0,1,1,1,1
0.057585500,0,0,1,1,1
0.057591500,0,1,1,1,1
0.057594875,0,0,1,1,1
0.057601000,0,1,1,1,1
0.057604250,0,0,1,1,1
0.057610375,0,1,1,1,1
0.057613750,0,0,1,1,1
0.057617125,1,1,1,1,1
0.057692625,1,0,0,1,1
0.065765500,1,1,1,1,1
0.065765750,1,0,0,1,1
0.075889375,1,1,0,1,1
0.075889625,1,0,0,1,1
0.092512500,1,1,0,1,1
0.092512750,1,0,0,1,1
0.106793000,1,0,1,1,1
0.106796625,1,1,1,1,1
0.106799250,1,0,1,1,1
0.106800500,1,0,0,1,1
0.110638000,1,1,0,1,1
0.110638250,1,0,0,1,1
0.118637125,1,1,1,1,1
0.118637375,1,0,0,1,1
0.122639000,1,1,1,1,1
0.122639250,1,0,0,1,1
0.134635375,1,1,1,1,1
0.134635500,1,0,0,1,1
0.136507500,1,1,1,1,1
0.136507750,1,0,0,1,1
0.136882500,1,1,1,1,1
0.136882750,1,0,0,1,1
0.140007125,1,1,0,1,1
0.140007375,1,0,0,1,1
0.150633500,1,1,0,1,1
0.150633750,1,0,0,1,1
0.150637250,1,1,1,1,1
0.150637500,1,0,0,1,1
0.157505125,1,1,0,1,1
0.157505375,1,0,0,1,1
0.157880125,1,1,0,1,1
0.157880375,1,0,0,1,1
0.182627250,1,1,0,1,1
0.182627500,1,0,0,1,1
0.182632000,1,1,0,1,1
0.182632125,1,0,0,1,1
0.198628125,1,1,1,1,1
0.198628375,1,0,0,1,1
0.206631125,1,1,1,1,1
0.206631250,1,0,0,1,1
0.208249375,1,1,0,1,1
0.208249625,1,0,0,1,1
0.214626250,1,1,0,1,1
0.214626500,1,0,0,1,1
0.217623375,1,1,1,1,1
0.217623625,1,0,0,1,1
0.227747250,1,1,1,1,1
0.227747500,1,0,0,1,1
0.232621625,1,1,0,1,1
0.232621875,1,0,0,1,1
0.238627500,1,1,0,1,1
0.238627625,1,0,0,1,1
0.244745250,1,1,0,1,1
0.244745500,1,0,0,1,1
0.246626750,1,1,1,1,1
0.246626875,1,0,0,1,1
0.253744250,1,1,0,1,1
0.253744500,1,0,0,1,1
0.254119250,1,1,0,1,1
0.254119500,1,0,0,1,1
0.267367750,1,1,0,1,1
0.267368000,1,0,0,1,1
0.270623875,1,1,1,1,1
0.270624000,1,0,0,1,1
0.277741500,1,1,1,1,1
0.277741750,1,0,0,1,1
0.278619125,1,1,1,1,1
0.278619250,1,0,0,1,1
0.280491250,1,1,0,1,1
0.280491500,1,0,0,1,1
0.293739750,1,1,1,1,1
0.293740000,1,0,0,1,1
0.294617250,1,1,1,1,1
0.294617500,1,0,0,1,1
0.323611375,1,1,1,1,1
0.323611625,1,0,0,1,1
0.326361000,1,1,0,1,1
0.326361250,1,0,0,1,1
0.359732250,1,1,0,1,1
0.359732500,1,0,0,1,1
0.362613375,1,1,0,1,1
0.362613625,1,0,0,1,1
0.369106250,1,1,0,1,1
0.369106500,1,0,0,1,1
0.370612375,1,1,1,1,1
0.370612625,1,0,0,1,1
0.386606875,1,1,1,1,1
0.386607000,1,0,0,1,1
0.402605000,1,1,0,1,1
0.402605250,1,0,0,1,1
0.418603250,1,1,0,1,1
0.418603375,1,0,0,1,1
0.422600125,1,1,1,1,1
0.422600375,1,0,0,1,1
0.426602375,1,1,1,1,1
0.426602500,1,0,0,1,1
0.427491875,1,1,1,1,1
0.429504125,1,1,0,1,1
0.429504625,1,0,0,1,1
0.431492375,1,1,1,1,1
0.431518500,0,1,1,1,1
0.431521375,0,0,1,1,1
0.431527500,0,1,1,1,1
0.431530875,0,0,1,1,1
0.431536875,0,1,1,1,1
0.431540250,0,0,1,1,1
0.431546375,0,1,1,1,1
0.431549625,0,0,1,1,1
0.431555750,0,1,1,1,1
0.431559125,0,0,1,1,1
0.431565125,0,1,1,1,1
0.431568500,0,0,1,1,1
0.431571875,0,0,0,1,1
0.431572000,1,1,1,1,1
0.431647500,1,0,0,1,1
0.448972250,1,1,1,1,1
0.448972500,1,0,0,1,1
0.458346125,1,1,1,1,1
0.458346375,1,0,0,1,1
0.474597000,1,1,0,1,1
0.474597125,1,0,0,1,1
0.475469250,1,1,1,1,1
0.475469500,1,0,0,1,1
0.480747625,1,0,1,1,1
0.480751375,1,1,1,1,1
0.480753875,1,0,1,1,1
0.480755125,1,0,0,1,1
0.482596125,1,1,0,1,1
0.482596250,1,0,0,1,1
0.482600000,1,1,0,1,1
0.482600125,1,0,0,1,1
0.485593000,1,1,1,1,1
0.485593250,1,0,0,1,1
0.502593875,1,1,0,1,1
0.502594000,1,0,0,1,1
0.522593375,1,1,1,1,1
0.522593625,1,0,0,1,1
0.526594875,1,1,1,1,1
0.526595125,1,0,0,1,1
0.530588000,1,1,0,1,1
0.530588250,1,0,0,1,1
0.538591750,1,1,0,1,1
0.538591875,1,0,0,1,1
0.548835875,1,1,0,1,1
0.548836125,1,0,0,1,1
0.555835125,1,1,1,1,1
0.555835375,1,0,0,1,1
0.562590875,1,1,0,1,1
0.562591000,1,0,0,1,1
0.578588875,1,1,0,1,1
0.578589000,1,0,0,1,1
0.600080125,1,1,0,1,1
0.600080375,1,0,0,1,1
0.610578875,1,1,0,1,1
0.610579125,1,0,0,1,1
0.614584875,1,1,0,1,1
0.614585125,1,0,0,1,1
0.617578125,1,1,0,1,1
0.617578375,1,0,0,1,1
0.653199125,1,1,0,1,1
0.653199375,1,0,0,1,1
0.654578500,1,1,1,1,1
0.654578750,1,0,0,1,1
0.662573000,1,1,1,1,1
0.662573250,1,0,0,1,1
0.662948000,1,1,0,1,1
0.662948250,1,0,0,1,1
0.690194875,1,1,1,1,1
0.690195125,1,0,0,1,1
0.694572000,1,1,1,1,1
0.694572250,1,0,0,1,1
0.696819125,1,1,0,1,1
0.696819375,1,0,0,1,1
0.702571125,1,1,0,1,1
0.702571250,1,0,0,1,1
0.722316250,1,1,0,1,1
0.722316500,1,0,0,1,1
0.735189875,1,1,0,1,1
0.735190125,1,0,0,1,1
0.742564000,1,1,1,1,1
0.742564250,1,0,0,1,1
0.750567750,1,1,0,1,1
0.750567875,1,0,0,1,1
0.766565875,1,1,0,1,1
0.766566125,1,0,0,1,1
0.778684875,1,1,1,1,1
0.778685125,1,0,0,1,1
0.788058875,1,1,0,1,1
0.788059125,1,0,0,1,1
0.790565125,1,1,0,1,1
0.790565250,1,0,0,1,1
0.792558375,1,1,0,1,1
0.792558625,1,0,0,1,1
0.795308000,1,1,1,1,1
0.795308250,1,0,0,1,1
0.801446875,1,1,1,1,1
0.803459750,1,0,0,1,1
0.805447250,1,1,1,1,1
0.805473125,0,1,1,1,1
0.805476000,0,0,1,1,1
0.805482125,0,1,1,1,1
0.805485500,0,0,1,1,1
0.805491625,0,1,1,1,1
0.805494875,0,0,1,1,1
0.805501000,0,1,1,1,1
0.805504375,0,0,1,1,1
0.805510375,0,1,1,1,1
0.805513750,0,0,1,1,1
0.805519875,0,1,1,1,1
0.805523125,0,0,1,1,1
0.805526625,1,1,1,1,1
0.805602125,1,0,0,1,1
0.814558500,1,1,0,1,1
0.814558625,1,0,0,1,1
0.830558750,1,1,0,1,1
0.830558875,1,0,0,1,1
0.848552000,1,1,0,1,1
0.848552250,1,0,0,1,1
0.854557875,1,1,0,1,1
0.854558125,1,0,0,1,1
0.854702250,1,0,1,1,1
0.854705875,1,1,1,1,1
0.854708500,1,0,1,1,1
0.854709750,1,0,0,1,1
0.875299000,1,1,0,1,1
0.875299250,1,0,0,1,1
0.893671875,1,1,1,1,1
0.893672125,1,0,0,1,1
0.903670750,1,1,0,1,1
0.903671000,1,0,0,1,1
0.914551125,1,1,0,1,1
0.914551250,1,0,0,1,1
0.920293875,1,1,0,1,1
0.920294125,1,0,0,1,1
0.922546250,1,1,0,1,1
0.922546500,1,0,0,1,1
0.922550125,1,1,0,1,1
0.922550250,1,0,0,1,1
0.926918125,1,1,0,1,1
0.926918375,1,0,0,1,1
0.929667875,1,1,1,1,1
0.929668125,1,0,0,1,1
0.930545375,1,1,1,1,1
0.930545500,1,0,0,1,1
0.939041750,1,1,0,1,1
0.939042000,1,0,0,1,1
0.939416750,1,1,1,1,1
0.939417000,1,0,0,1,1
0.946543625,1,1,0,1,1
0.946543750,1,0,0,1,1
0.946547375,1,1,0,1,1
0.946547625,1,0,0,1,1
0.954546500,1,1,1,1,1
0.954546750,1,0,0,1,1
0.962541750,1,1,0,1,1
0.962542000,1,0,0,1,1
0.973163000,1,1,0,1,1
0.973163250,1,0,0,1,1
0.973537875,1,1,0,1,1
0.973538125,1,0,0,1,1
0.986539000,1,1,0,1,1
0.986539250,1,0,0,1,1
0.993035750,1,1,0,1,1
0.993036000,1,0,0,1,1
1.002541125,1,1,1,1,1
1.002541250,1,0,0,1,1
1.018539375,1,1,1,1,1
1.018539625,1,0,0,1,1
1.019407750,1,1,1,1,1
1.019408000,1,0,0,1,1
1.029531625,1,1,1,1,1
1.029531875,1,0,0,1,1
1.042532750,1,1,0,1,1
1.042533000,1,0,0,1,1
1.042536750,1,1,0,1,1
1.042536875,1,0,0,1,1
1.050531875,1,1,0,1,1
1.050532125,1,0,0,1,1
1.050535750,1,1,1,1,1
1.050536000,1,0,0,1,1
1.055528625,1,1,0,1,1
1.055528875,1,0,0,1,1
1.066530125,1,1,1,1,1
1.066530250,1,0,0,1,1
1.074529125,1,1,0,1,1
1.074529375,1,0,0,1,1
1.079525875,1,1,0,1,1
1.079526125,1,0,0,1,1
1.082528250,1,1,0,1,1
1.082528375,1,0,0,1,1
1.090527375,1,1,1,1,1
1.090527625,1,0,0,1,1
1.098648750,1,1,0,1,1
1.098649000,1,0,0,1,1
1.115271875,1,1,0,1,1
1.115272125,1,0,0,1,1
1.122525750,1,1,1,1,1
1.122525875,1,0,0,1,1
1.124270875,1,1,1,1,1
1.124271125,1,0,0,1,1
1.140519000,1,1,0,1,1
1.140519250,1,0,0,1,1
1.143643625,1,1,0,1,1
1.143643875,1,0,0,1,1
1.146524875,1,1,0,1,1
1.146525125,1,0,0,1,1
1.159516875,1,1,1,1,1
1.159517125,1,0,0,1,1
1.161891625,1,1,0,1,1
1.161891875,1,0,0,1,1
1.170519625,1,1,1,1,1
1.170519875,1,0,0,1,1
1.175401500,1,1,1,1,1
1.177414250,1,0,0,1,1
1.178139750,1,1,1,1,1
1.178140000,1,0,0,1,1
1.179401875,1,1,1,1,1
1.179427750,0,1,1,1,1
1.179430625,0,0,1,1,1
1.179436750,0,1,1,1,1
1.179440125,0,0,1,1,1
1.179446250,0,1,1,1,1
1.179449500,0,0,1,1,1
1.179455625,0,1,1,1,1
1.179459000,0,0,1,1,1
1.179465000,0,1,1,1,1
1.179468375,0,0,1,1,1
1.179474500,0,1,1,1,1
1.179477750,0,0,1,1,1
1.179481250,1,1,1,1,1
1.179568000,1,1,0,1,1
1.179568375,1,0,0,1,1
1.186763750,1,1,0,1,1
1.186764000,1,0,0,1,1
1.205761625,1,1,0,1,1
1.205761875,1,0,0,1,1
1.228657000,1,0,1,1,1
1.228660625,1,1,1,1,1
1.228663125,1,0,1,1,1
1.228664375,1,0,0,1,1
1.231008750,1,1,1,1,1
1.231009000,1,0,0,1,1
1.233758500,1,1,1,1,1
1.233758750,1,0,0,1,1
1.260505500,1,1,0,1,1
1.260505750,1,0,0,1,1
1.263005250,1,1,0,1,1
1.263005375,1,0,0,1,1
1.270254375,1,1,0,1,1
1.270254625,1,0,0,1,1
1.273754000,1,1,0,1,1
1.273754250,1,0,0,1,1
1.286627500,1,1,0,1,1
1.286627750,1,0,0,1,1
1.291876875,1,1,0,1,1
1.291877125,1,0,0,1,1
1.292251875,1,1,1,1,1
1.292252125,1,0,0,1,1
1.297501250,1,1,0,1,1
1.297501500,1,0,0,1,1
1.302375750,1,1,1,1,1
1.302376000,1,0,0,1,1
1.310501875,1,1,1,1,1
1.310502000,1,0,0,1,1
1.318504625,1,1,1,1,1
1.318504875,1,0,0,1,1
1.318748875,1,1,1,1,1
1.318749125,1,0,0,1,1
1.319123875,1,1,0,1,1
1.319124125,1,0,0,1,1
1.328872750,1,1,1,1,1
1.328873000,1,0,0,1,1
1.331247500,1,1,0,1,1
1.331247750,1,0,0,1,1
1.331622375,1,1,1,1,1
1.331622625,1,0,0,1,1
1.331997375,1,1,1,1,1
1.331997625,1,0,0,1,1
1.358498500,1,1,0,1,1
1.358498625,1,0,0,1,1
1.363743750,1,1,1,1,1
1.363744000,1,0,0,1,1
1.365743625,1,1,0,1,1
1.365743875,1,0,0,1,1
1.366118500,1,1,0,1,1
1.366118750,1,0,0,1,1
1.366493500,1,1,1,1,1
1.366493750,1,0,0,1,1
1.390494750,1,1,0,1,1
1.390495000,1,0,0,1,1
1.390615750,1,1,0,1,1
1.390616000,1,0,0,1,1
1.394115375,1,1,1,1,1
1.394115625,1,0,0,1,1
1.400739625,1,1,0,1,1
1.400739875,1,0,0,1,1
1.401114625,1,1,0,1,1
1.401114875,1,0,0,1,1
1.411613375,1,1,1,1,1
1.411613625,1,0,0,1,1
1.422493000,1,1,1,1,1
1.422493125,1,0,0,1,1
1.436360625,1,1,1,1,1
1.436360875,1,0,0,1,1
1.442984875,1,1,0,1,1
1.442985125,1,0,0,1,1
1.445359625,1,1,0,1,1
1.445359875,1,0,0,1,1
1.445734500,1,1,0,1,1
1.445734750,1,0,0,1,1
1.446109500,1,1,1,1,1
1.446109750,1,0,0,1,1
1.446484500,1,1,0,1,1
1.446484750,1,0,0,1,1
1.456233375,1,1,0,1,1
1.456233625,1,0,0,1,1
1.470106750,1,1,0,1,1
1.470107000,1,0,0,1,1
1.477481000,1,1,0,1,1
1.477481250,1,0,0,1,1
1.478484875,1,1,1,1,1
1.478485125,1,0,0,1,1
1.479855625,1,1,0,1,1
1.479855875,1,0,0,1,1
1.480605625,1,1,0,1,1
1.480605875,1,0,0,1,1
1.482486125,1,1,0,1,1
1.482486375,1,0,0,1,1
1.487979750,1,1,1,1,1
1.487980000,1,0,0,1,1
1.490485250,1,1,0,1,1
1.490485375,1,0,0,1,1
1.490729500,1,1,1,1,1
1.490729750,1,0,0,1,1
1.498478625,1,1,0,1,1
1.498478875,1,0,0,1,1
1.498853500,1,1,0,1,1
1.498853750,1,0,0,1,1
1.512227000,1,1,1,1,1
1.512227250,1,0,0,1,1
1.517101500,1,1,1,1,1
1.517101750,1,0,0,1,1
1.522477875,1,1,0,1,1
1.522478125,1,0,0,1,1
1.524475625,1,1,0,1,1
1.524475875,1,0,0,1,1
1.541223750,1,1,0,1,1
1.541224000,1,0,0,1,1
1.541598750,1,1,0,1,1
1.541599000,1,0,0,1,1
1.541973625,1,1,0,1,1
1.541973875,1,0,0,1,1
1.544348375,1,1,0,1,1
1.544348625,1,0,0,1,1
1.549356375,1,1,1,1,1
1.551369500,1,0,0,1,1
1.551722500,1,1,0,1,1
1.551722750,1,0,0,1,1
1.552097500,1,1,0,1,1
1.552097750,1,0,0,1,1
1.552847375,1,1,0,1,1
1.552847625,1,0,0,1,1
1.553356750,1,1,1,1,1
1.553382750,0,1,1,1,1
1.553385500,0,0,1,1,1
1.553391625,0,1,1,1,1
1.553395000,0,0,1,1,1
1.553401000,0,1,1,1,1
1.553404375,0,0,1,1,1
1.553410500,0,1,1,1,1
1.553413750,0,0,1,1,1
1.553419875,0,1,1,1,1
1.553423250,0,0,1,1,1
1.553429250,0,1,1,1,1
1.553432625,0,0,1,1,1
1.553436000,0,0,0,1,1
1.553436500,1,1,1,1,1
1.553511500,1,0,0,1,1
1.559846625,1,1,1,1,1
1.559846875,1,0,0,1,1
1.570472500,1,1,1,1,1
1.570472750,1,0,0,1,1
1.578471625,1,1,1,1,1
1.578471750,1,0,0,1,1
1.579344375,1,1,0,1,1
1.579344625,1,0,0,1,1
1.594473625,1,1,1,1,1
1.594473750,1,0,0,1,1
1.599967125,1,1,0,1,1
1.599967375,1,0,0,1,1
1.602611750,1,0,1,1,1
1.602615500,1,1,1,1,1
1.602617875,1,0,1,1,1
1.602619125,1,0,0,1,1
1.604841500,1,1,0,1,1
1.604841750,1,0,0,1,1
1.612590625,1,1,1,1,1
1.612590875,1,0,0,1,1
1.623964375,1,1,1,1,1
1.623964625,1,0,0,1,1
1.631338500,1,1,1,1,1
1.631338750,1,0,0,1,1
1.631713500,1,1,0,1,1
1.631713750,1,0,0,1,1
1.634463250,1,1,0,1,1
1.634463500,1,0,0,1,1
1.658464500,1,1,1,1,1
1.658464750,1,0,0,1,1
1.665834625,1,1,0,1,1
1.665834875,1,0,0,1,1
1.666209625,1,1,1,1,1
1.666209875,1,0,0,1,1
1.666584625,1,1,1,1,1
1.666584875,1,0,0,1,1
1.686457375,1,1,0,1,1
1.686457625,1,0,0,1,1
1.698458125,1,1,0,1,1
1.698458250,1,0,0,1,1
1.702830500,1,1,0,1,1
1.702830750,1,0,0,1,1
1.703205375,1,1,1,1,1
1.703205625,1,0,0,1,1
1.705955125,1,1,0,1,1
1.705955375,1,0,0,1,1
1.713704250,1,1,1,1,1
1.713704500,1,0,0,1,1
1.714079250,1,1,1,1,1
1.714079500,1,0,0,1,1
1.719328625,1,1,1,1,1
1.719328875,1,0,0,1,1
1.722457625,1,1,0,1,1
1.722457875,1,0,0,1,1
1.743075875,1,1,0,1,1
1.743076125,1,0,0,1,1
1.745450625,1,1,0,1,1
1.745450875,1,0,0,1,1
1.745825625,1,1,0,1,1
1.745825875,1,0,0,1,1
1.748575250,1,1,1,1,1
1.748575500,1,0,0,1,1
1.750456000,1,1,0,1,1
1.750456250,1,0,0,1,1
1.755949500,1,1,1,1,1
1.755949750,1,0,0,1,1
1.756324375,1,1,1,1,1
1.756324625,1,0,0,1,1
1.763323625,1,1,0,1,1
1.763323875,1,0,0,1,1
1.766448250,1,1,1,1,1
1.766448500,1,0,0,1,1
1.766823250,1,1,1,1,1
1.766823500,1,0,0,1,1
1.790945500,1,1,0,1,1
1.790945750,1,0,0,1,1
1.794445125,1,1,0,1,1
1.794445375,1,0,0,1,1
1.801444375,1,1,0,1,1
1.801444625,1,0,0,1,1
1.806445875,1,1,1,1,1
1.806446000,1,0,0,1,1
1.806449625,1,1,1,1,1
1.806449750,1,0,0,1,1
1.806693750,1,1,0,1,1
1.806694000,1,0,0,1,1
1.811943125,1,1,0,1,1
1.811943375,1,0,0,1,1
1.814448625,1,1,1,1,1
1.814448875,1,0,0,1,1
1.822442000,1,1,1,1,1
1.822442250,1,0,0,1,1
1.826443500,1,1,1,1,1
1.826443750,1,0,0,1,1
1.830445000,1,1,1,1,1
1.830445125,1,0,0,1,1
1.837065250,1,1,0,1,1
1.837065500,1,0,0,1,1
1.838444250,1,1,1,1,1
1.838444375,1,0,0,1,1
1.844064500,1,1,0,1,1
1.844064750,1,0,0,1,1
1.846439250,1,1,0,1,1
1.846439500,1,0,0,1,1
1.846814250,1,1,0,1,1
1.846814500,1,0,0,1,1
1.864687125,1,1,1,1,1
1.864687375,1,0,0,1,1
1.870438625,1,1,1,1,1
1.870438750,1,0,0,1,1
1.881435250,1,1,0,1,1
1.881435500,1,0,0,1,1
1.907432375,1,1,0,1,1
1.907432625,1,0,0,1,1
1.910434125,1,1,1,1,1
1.910434250,1,0,0,1,1
1.917931125,1,1,0,1,1
1.917931375,1,0,0,1,1
1.920680875,1,1,0,1,1
1.920681125,1,0,0,1,1
1.923311000,1,1,1,1,1
1.925327000,1,0,0,1,1
1.926432250,1,1,1,1,1
1.926432500,1,0,0,1,1
1.927311375,1,1,1,1,1
1.927337500,0,1,1,1,1
1.927340250,0,0,1,1,1
1.927346250,0,1,1,1,1
1.927349625,0,0,1,1,1
1.927355750,0,1,1,1,1
1.927359125,0,0,1,1,1
1.927365125,0,1,1,1,1
1.927368500,0,0,1,1,1
1.927374625,0,1,1,1,1
1.927377875,0,0,1,1,1
1.927384000,0,1,1,1,1
1.927387375,0,0,1,1,1
1.927390750,1,1,1,1,1
1.927466250,1,0,0,1,1
1.935304250,1,1,1,1,1
1.935304500,1,0,0,1,1
1.944678125,1,1,1,1,1
1.944678375,1,0,0,1,1
1.958176625,1,1,0,1,1
1.958176875,1,0,0,1,1
1.960926250,1,1,0,1,1
1.960926500,1,0,0,1,1
1.966429500,1,1,0,1,1
1.966429750,1,0,0,1,1
1.976566750,1,0,1,1,1
1.976570250,1,1,1,1,1
1.976572750,1,0,1,1,1
1.976574000,1,0,0,1,1
1.984173625,1,1,1,1,1
1.984173875,1,0,0,1,1
1.986923375,1,1,1,1,1
1.986923625,1,0,0,1,1
1.990428750,1,1,0,1,1
1.990429000,1,0,0,1,1
1.995547375,1,1,0,1,1
1.995547625,1,0,0,1,1
1.998427875,1,1,0,1,1
1.998428000,1,0,0,1,1
2.005671250,1,1,0,1,1
2.005671500,1,0,0,1,1
2.008420875,1,1,0,1,1
2.008421125,1,0,0,1,1
2.021919375,1,1,0,1,1
2.021919625,1,0,0,1,1
2.022425625,1,1,0,1,1
2.022425875,1,0,0,1,1
2.032043250,1,1,0,1,1
2.032043500,1,0,0,1,1
2.032418250,1,1,1,1,1
2.032418500,1,0,0,1,1
2.034793000,1,1,0,1,1
2.034793250,1,0,0,1,1
2.059165250,1,1,0,1,1
2.059165500,1,0,0,1,1
2.066418375,1,1,1,1,1
2.066418500,1,0,0,1,1
2.066539375,1,1,0,1,1
2.066539625,1,0,0,1,1
2.069289000,1,1,1,1,1
2.069289250,1,0,0,1,1
2.079038000,1,1,0,1,1
2.079038250,1,0,0,1,1
2.082416625,1,1,0,1,1
2.082416750,1,0,0,1,1
2.098416625,1,1,0,1,1
2.098416750,1,0,0,1,1
2.102412875,1,1,1,1,1
2.102413125,1,0,0,1,1
2.109534500,1,1,0,1,1
2.109534750,1,0,0,1,1
2.119283375,1,1,0,1,1
2.119283625,1,0,0,1,1
2.126410250,1,1,1,1,1
2.126410375,1,0,0,1,1
2.142408375,1,1,1,1,1
2.142408625,1,0,0,1,1
2.146412000,1,1,0,1,1
2.146412125,1,0,0,1,1
2.164778250,1,1,1,1,1
2.164778500,1,0,0,1,1
2.167528000,1,1,1,1,1
2.167528250,1,0,0,1,1
2.170409000,1,1,1,1,1
2.170409125,1,0,1,1,1
2.170409250,1,0,0,1,1
2.178408250,1,1,0,1,1
2.178408375,1,0,0,1,1
2.181401375,1,1,0,1,1
2.181401625,1,0,0,1,1
2.186407125,1,1,1,1,1
2.186407375,1,0,0,1,1
2.194402500,1,1,0,1,1
2.194402750,1,0,0,1,1
2.203273875,1,1,0,1,1
2.203274125,1,0,0,1,1
2.205398625,1,1,0,1,1
2.205398875,1,0,0,1,1
2.217522250,1,1,0,1,1
2.217522500,1,0,0,1,1
2.218403750,1,1,0,1,1
2.218404000,1,0,0,1,1
2.226402875,1,1,1,1,1
2.226403000,1,0,0,1,1
2.242401000,1,1,0,1,1
2.242401125,1,0,0,1,1
2.244394250,1,1,0,1,1
2.244394500,1,0,0,1,1
2.250400125,1,1,1,1,1
2.250400375,1,0,0,1,1
2.258399500,1,1,0,1,1
2.258399750,1,0,0,1,1
2.266398250,1,1,1,1,1
2.266398500,1,0,0,1,1
2.271516250,1,1,1,1,1
2.271516500,1,0,0,1,1
2.297265750,1,1,1,1,1
2.299278125,1,0,0,1,1
2.300387875,1,1,0,1,1
2.300388125,1,0,0,1,1
2.301266375,1,1,1,1,1
2.301292250,0,1,1,1,1
2.301295125,0,0,1,1,1
2.301301250,0,1,1,1,1
2.301304625,0,0,1,1,1
2.301310750,0,1,1,1,1
2.301314000,0,0,1,1,1
2.301320125,0,1,1,1,1
2.301323500,0,0,1,1,1
2.301329500,0,1,1,1,1
2.301332875,0,0,1,1,1
2.301339000,0,1,1,1,1
2.301342250,0,0,1,1,1
2.301345625,1,0,1,1,1
2.301345750,1,1,1,1,1
2.301421250,1,1,0,1,1
2.301422125,1,0,0,1,1
2.314261375,1,1,0,1,1
2.314261625,1,0,0,1,1
2.317386000,1,1,0,1,1
2.317386250,1,0,0,1,1
2.343383125,1,1,1,1,1
2.343383375,1,0,0,1,1
2.350521375,1,0,1,1,1
2.350525000,1,1,1,1,1
2.350527500,1,0,1,1,1
2.350528750,1,0,0,1,1
2.352757000,1,1,0,1,1
2.352757250,1,0,0,1,1
2.353132000,1,1,1,1,1
2.353132250,1,0,0,1,1
2.362131000,1,1,1,1,1
2.362131250,1,0,0,1,1
2.379504000,1,1,0,1,1
2.379504250,1,0,0,1,1
2.398379500,1,1,0,1,1
2.398379625,1,0,0,1,1
2.404376125,1,1,0,1,1
2.404376375,1,0,0,1,1
2.406378625,1,1,1,1,1
2.406378750,1,0,0,1,1
2.411750375,1,1,0,1,1
2.411750625,1,0,0,1,1
2.414500000,1,1,0,1,1
2.414500250,1,0,0,1,1
2.431498125,1,1,0,1,1
2.431498375,1,0,0,1,1
2.440497125,1,1,0,1,1
2.440497375,1,0,0,1,1
2.452995625,1,1,1,1,1
2.452995875,1,0,0,1,1
2.454375125,1,1,0,1,1
2.454375375,1,0,0,1,1
2.457495125,1,1,0,1,1
2.457495375,1,0,0,1,1
2.457870125,1,1,0,1,1
2.457870375,1,0,0,1,1
2.462374250,1,1,1,1,1
2.462374500,1,0,0,1,1
2.464494375,1,1,0,1,1
2.464494625,1,0,0,1,1
2.491366375,1,1,0,1,1
2.491366625,1,0,0,1,1
2.502115125,1,1,0,1,1
2.502115375,1,0,0,1,1
2.502369625,1,1,0,1,1
2.502369875,1,0,0,1,1
2.521612875,1,1,0,1,1
2.521613125,1,0,0,1,1
2.528237125,1,1,0,1,1
2.528237375,1,0,0,1,1
2.531361875,1,1,1,1,1
2.531362125,1,0,0,1,1
2.542363250,1,1,0,1,1
2.542363375,1,0,0,1,1
2.542367125,1,1,0,1,1
2.542367250,1,0,0,1,1
2.553734250,1,1,0,1,1
2.553734500,1,0,0,1,1
2.558365250,1,1,1,1,1
2.558365375,1,0,0,1,1
2.560358500,1,1,1,1,1
2.560358750,1,0,0,1,1
2.573982000,1,1,1,1,1
2.573982250,1,0,0,1,1
2.584105875,1,1,0,1,1
2.584106125,1,0,0,1,1
2.591480000,1,1,0,1,1
2.591480250,1,0,0,1,1
2.611352750,1,1,1,1,1
2.611353000,1,0,0,1,1
2.622354125,1,1,0,1,1
2.622354375,1,0,0,1,1
2.642353750,1,1,0,1,1
2.642354000,1,0,0,1,1
2.642724250,1,1,0,1,1
2.642724500,1,0,0,1,1
2.645473875,1,1,0,1,1
2.645474125,1,0,0,1,1
2.645848875,1,1,1,1,1
2.645849125,1,0,0,1,1
2.650352875,1,1,0,1,1
2.650353125,1,0,0,1,1
2.652473125,1,1,1,1,1
2.652473375,1,0,0,1,1
2.658352000,1,1,1,1,1
2.658352125,1,0,0,1,1
2.662472000,1,1,0,1,1
2.662472250,1,0,0,1,1
2.670348750,1,1,0,1,1
2.670348875,1,0,0,1,1
2.671220375,1,1,1,1,1
2.673231125,1,0,0,1,1
2.674350125,1,1,0,1,1
2.674350375,1,0,0,1,1
2.675220875,1,1,1,1,1
2.675246875,0,1,1,1,1
2.675249625,0,0,1,1,1
2.675255750,0,1,1,1,1
2.675259125,0,0,1,1,1
2.675265250,0,1,1,1,1
2.675268500,0,0,1,1,1
2.675274625,0,1,1,1,1
2.675278000,0,0,1,1,1
2.675284000,0,1,1,1,1
2.675287375,0,0,1,1,1
2.675293500,0,1,1,1,1
2.675296750,0,0,1,1,1
2.675300250,0,0,0,1,1
2.675300625,1,1,1,1,1
2.675375750,1,0,0,1,1
2.679220125,1,1,0,1,1
2.679220375,1,0,0,1,1
2.682349250,1,1,1,1,1
2.682349500,1,0,0,1,1
2.696343125,1,1,0,1,1
2.696343375,1,0,0,1,1
2.703342375,1,1,0,1,1
2.703342625,1,0,0,1,1
2.706467000,1,1,0,1,1
2.706467250,1,0,0,1,1
2.714343750,1,1,1,1,1
2.714344000,1,0,0,1,1
2.716590875,1,1,0,1,1
2.716591125,1,0,0,1,1
2.718345625,1,1,0,1,1
2.718345875,1,0,0,1,1
2.724476125,1,0,1,1,1
2.724479750,1,1,1,1,1
2.724482375,1,0,1,1,1
2.724483500,1,0,0,1,1
2.730342000,1,1,0,1,1
2.730342250,1,0,0,1,1
2.730346000,1,1,1,1,1
2.730346125,1,0,0,1,1
